 
****************************************
Report : path_group
Design : DW_axi
Version: K-2015.06
Date   : Mon Aug  6 11:22:09 2018
****************************************

                        Critical
Group Name    Weight    Range
--------------------------------------------------------------------------------
**default**   1.00      0.00                 
FEEDTHROUGH   1.00      0.00                 
REGIN         1.00      0.00                 
REGOUT        1.00      0.00                 
aclk          1.00      0.00                 

Path Group FEEDTHROUGH:
	-from    { aresetn\
		   awvalid_m1\
		   awaddr_m1[31]\
		   awaddr_m1[30]\
		   awaddr_m1[29]\
		   awaddr_m1[28]\
		   awaddr_m1[27]\
		   awaddr_m1[26]\
		   awaddr_m1[25]\
		   awaddr_m1[24]\
		   awaddr_m1[23]\
		   awaddr_m1[22]\
		   awaddr_m1[21]\
		   awaddr_m1[20]\
		   awaddr_m1[19]\
		   awaddr_m1[18]\
		   awaddr_m1[17]\
		   awaddr_m1[16]\
		   awaddr_m1[15]\
		   awaddr_m1[14]\
		   awaddr_m1[13]\
		   awaddr_m1[12]\
		   awaddr_m1[11]\
		   awaddr_m1[10]\
		   awaddr_m1[9]\
		   awaddr_m1[8]\
		   awaddr_m1[7]\
		   awaddr_m1[6]\
		   awaddr_m1[5]\
		   awaddr_m1[4]\
		   awaddr_m1[3]\
		   awaddr_m1[2]\
		   awaddr_m1[1]\
		   awaddr_m1[0]\
		   awid_m1[3]\
		   awid_m1[2]\
		   awid_m1[1]\
		   awid_m1[0]\
		   awlen_m1[3]\
		   awlen_m1[2]\
		   awlen_m1[1]\
		   awlen_m1[0]\
		   awsize_m1[2]\
		   awsize_m1[1]\
		   awsize_m1[0]\
		   awburst_m1[1]\
		   awburst_m1[0]\
		   awlock_m1[1]\
		   awlock_m1[0]\
		   awcache_m1[3]\
		   awcache_m1[2]\
		   awcache_m1[1]\
		   awcache_m1[0]\
		   awprot_m1[2]\
		   awprot_m1[1]\
		   awprot_m1[0]\
		   wvalid_m1\
		   wid_m1[3]\
		   wid_m1[2]\
		   wid_m1[1]\
		   wid_m1[0]\
		   wdata_m1[127]\
		   wdata_m1[126]\
		   wdata_m1[125]\
		   wdata_m1[124]\
		   wdata_m1[123]\
		   wdata_m1[122]\
		   wdata_m1[121]\
		   wdata_m1[120]\
		   wdata_m1[119]\
		   wdata_m1[118]\
		   wdata_m1[117]\
		   wdata_m1[116]\
		   wdata_m1[115]\
		   wdata_m1[114]\
		   wdata_m1[113]\
		   wdata_m1[112]\
		   wdata_m1[111]\
		   wdata_m1[110]\
		   wdata_m1[109]\
		   wdata_m1[108]\
		   wdata_m1[107]\
		   wdata_m1[106]\
		   wdata_m1[105]\
		   wdata_m1[104]\
		   wdata_m1[103]\
		   wdata_m1[102]\
		   wdata_m1[101]\
		   wdata_m1[100]\
		   wdata_m1[99]\
		   wdata_m1[98]\
		   wdata_m1[97]\
		   wdata_m1[96]\
		   wdata_m1[95]\
		   wdata_m1[94]\
		   wdata_m1[93]\
		   wdata_m1[92]\
		   wdata_m1[91]\
		   wdata_m1[90]\
		   wdata_m1[89]\
		   wdata_m1[88]\
		   wdata_m1[87]\
		   wdata_m1[86]\
		   wdata_m1[85]\
		   wdata_m1[84]\
		   wdata_m1[83]\
		   wdata_m1[82]\
		   wdata_m1[81]\
		   wdata_m1[80]\
		   wdata_m1[79]\
		   wdata_m1[78]\
		   wdata_m1[77]\
		   wdata_m1[76]\
		   wdata_m1[75]\
		   wdata_m1[74]\
		   wdata_m1[73]\
		   wdata_m1[72]\
		   wdata_m1[71]\
		   wdata_m1[70]\
		   wdata_m1[69]\
		   wdata_m1[68]\
		   wdata_m1[67]\
		   wdata_m1[66]\
		   wdata_m1[65]\
		   wdata_m1[64]\
		   wdata_m1[63]\
		   wdata_m1[62]\
		   wdata_m1[61]\
		   wdata_m1[60]\
		   wdata_m1[59]\
		   wdata_m1[58]\
		   wdata_m1[57]\
		   wdata_m1[56]\
		   wdata_m1[55]\
		   wdata_m1[54]\
		   wdata_m1[53]\
		   wdata_m1[52]\
		   wdata_m1[51]\
		   wdata_m1[50]\
		   wdata_m1[49]\
		   wdata_m1[48]\
		   wdata_m1[47]\
		   wdata_m1[46]\
		   wdata_m1[45]\
		   wdata_m1[44]\
		   wdata_m1[43]\
		   wdata_m1[42]\
		   wdata_m1[41]\
		   wdata_m1[40]\
		   wdata_m1[39]\
		   wdata_m1[38]\
		   wdata_m1[37]\
		   wdata_m1[36]\
		   wdata_m1[35]\
		   wdata_m1[34]\
		   wdata_m1[33]\
		   wdata_m1[32]\
		   wdata_m1[31]\
		   wdata_m1[30]\
		   wdata_m1[29]\
		   wdata_m1[28]\
		   wdata_m1[27]\
		   wdata_m1[26]\
		   wdata_m1[25]\
		   wdata_m1[24]\
		   wdata_m1[23]\
		   wdata_m1[22]\
		   wdata_m1[21]\
		   wdata_m1[20]\
		   wdata_m1[19]\
		   wdata_m1[18]\
		   wdata_m1[17]\
		   wdata_m1[16]\
		   wdata_m1[15]\
		   wdata_m1[14]\
		   wdata_m1[13]\
		   wdata_m1[12]\
		   wdata_m1[11]\
		   wdata_m1[10]\
		   wdata_m1[9]\
		   wdata_m1[8]\
		   wdata_m1[7]\
		   wdata_m1[6]\
		   wdata_m1[5]\
		   wdata_m1[4]\
		   wdata_m1[3]\
		   wdata_m1[2]\
		   wdata_m1[1]\
		   wdata_m1[0]\
		   wstrb_m1[15]\
		   wstrb_m1[14]\
		   wstrb_m1[13]\
		   wstrb_m1[12]\
		   wstrb_m1[11]\
		   wstrb_m1[10]\
		   wstrb_m1[9]\
		   wstrb_m1[8]\
		   wstrb_m1[7]\
		   wstrb_m1[6]\
		   wstrb_m1[5]\
		   wstrb_m1[4]\
		   wstrb_m1[3]\
		   wstrb_m1[2]\
		   wstrb_m1[1]\
		   wstrb_m1[0]\
		   wlast_m1\
		   bready_m1\
		   arvalid_m1\
		   arid_m1[3]\
		   arid_m1[2]\
		   arid_m1[1]\
		   arid_m1[0]\
		   araddr_m1[31]\
		   araddr_m1[30]\
		   araddr_m1[29]\
		   araddr_m1[28]\
		   araddr_m1[27]\
		   araddr_m1[26]\
		   araddr_m1[25]\
		   araddr_m1[24]\
		   araddr_m1[23]\
		   araddr_m1[22]\
		   araddr_m1[21]\
		   araddr_m1[20]\
		   araddr_m1[19]\
		   araddr_m1[18]\
		   araddr_m1[17]\
		   araddr_m1[16]\
		   araddr_m1[15]\
		   araddr_m1[14]\
		   araddr_m1[13]\
		   araddr_m1[12]\
		   araddr_m1[11]\
		   araddr_m1[10]\
		   araddr_m1[9]\
		   araddr_m1[8]\
		   araddr_m1[7]\
		   araddr_m1[6]\
		   araddr_m1[5]\
		   araddr_m1[4]\
		   araddr_m1[3]\
		   araddr_m1[2]\
		   araddr_m1[1]\
		   araddr_m1[0]\
		   arlen_m1[3]\
		   arlen_m1[2]\
		   arlen_m1[1]\
		   arlen_m1[0]\
		   arsize_m1[2]\
		   arsize_m1[1]\
		   arsize_m1[0]\
		   arburst_m1[1]\
		   arburst_m1[0]\
		   arlock_m1[1]\
		   arlock_m1[0]\
		   arcache_m1[3]\
		   arcache_m1[2]\
		   arcache_m1[1]\
		   arcache_m1[0]\
		   arprot_m1[2]\
		   arprot_m1[1]\
		   arprot_m1[0]\
		   rready_m1\
		   awready_s1\
		   wready_s1\
		   bvalid_s1\
		   bid_s1[3]\
		   bid_s1[2]\
		   bid_s1[1]\
		   bid_s1[0]\
		   bresp_s1[1]\
		   bresp_s1[0]\
		   arready_s1\
		   rvalid_s1\
		   rid_s1[3]\
		   rid_s1[2]\
		   rid_s1[1]\
		   rid_s1[0]\
		   rdata_s1[127]\
		   rdata_s1[126]\
		   rdata_s1[125]\
		   rdata_s1[124]\
		   rdata_s1[123]\
		   rdata_s1[122]\
		   rdata_s1[121]\
		   rdata_s1[120]\
		   rdata_s1[119]\
		   rdata_s1[118]\
		   rdata_s1[117]\
		   rdata_s1[116]\
		   rdata_s1[115]\
		   rdata_s1[114]\
		   rdata_s1[113]\
		   rdata_s1[112]\
		   rdata_s1[111]\
		   rdata_s1[110]\
		   rdata_s1[109]\
		   rdata_s1[108]\
		   rdata_s1[107]\
		   rdata_s1[106]\
		   rdata_s1[105]\
		   rdata_s1[104]\
		   rdata_s1[103]\
		   rdata_s1[102]\
		   rdata_s1[101]\
		   rdata_s1[100]\
		   rdata_s1[99]\
		   rdata_s1[98]\
		   rdata_s1[97]\
		   rdata_s1[96]\
		   rdata_s1[95]\
		   rdata_s1[94]\
		   rdata_s1[93]\
		   rdata_s1[92]\
		   rdata_s1[91]\
		   rdata_s1[90]\
		   rdata_s1[89]\
		   rdata_s1[88]\
		   rdata_s1[87]\
		   rdata_s1[86]\
		   rdata_s1[85]\
		   rdata_s1[84]\
		   rdata_s1[83]\
		   rdata_s1[82]\
		   rdata_s1[81]\
		   rdata_s1[80]\
		   rdata_s1[79]\
		   rdata_s1[78]\
		   rdata_s1[77]\
		   rdata_s1[76]\
		   rdata_s1[75]\
		   rdata_s1[74]\
		   rdata_s1[73]\
		   rdata_s1[72]\
		   rdata_s1[71]\
		   rdata_s1[70]\
		   rdata_s1[69]\
		   rdata_s1[68]\
		   rdata_s1[67]\
		   rdata_s1[66]\
		   rdata_s1[65]\
		   rdata_s1[64]\
		   rdata_s1[63]\
		   rdata_s1[62]\
		   rdata_s1[61]\
		   rdata_s1[60]\
		   rdata_s1[59]\
		   rdata_s1[58]\
		   rdata_s1[57]\
		   rdata_s1[56]\
		   rdata_s1[55]\
		   rdata_s1[54]\
		   rdata_s1[53]\
		   rdata_s1[52]\
		   rdata_s1[51]\
		   rdata_s1[50]\
		   rdata_s1[49]\
		   rdata_s1[48]\
		   rdata_s1[47]\
		   rdata_s1[46]\
		   rdata_s1[45]\
		   rdata_s1[44]\
		   rdata_s1[43]\
		   rdata_s1[42]\
		   rdata_s1[41]\
		   rdata_s1[40]\
		   rdata_s1[39]\
		   rdata_s1[38]\
		   rdata_s1[37]\
		   rdata_s1[36]\
		   rdata_s1[35]\
		   rdata_s1[34]\
		   rdata_s1[33]\
		   rdata_s1[32]\
		   rdata_s1[31]\
		   rdata_s1[30]\
		   rdata_s1[29]\
		   rdata_s1[28]\
		   rdata_s1[27]\
		   rdata_s1[26]\
		   rdata_s1[25]\
		   rdata_s1[24]\
		   rdata_s1[23]\
		   rdata_s1[22]\
		   rdata_s1[21]\
		   rdata_s1[20]\
		   rdata_s1[19]\
		   rdata_s1[18]\
		   rdata_s1[17]\
		   rdata_s1[16]\
		   rdata_s1[15]\
		   rdata_s1[14]\
		   rdata_s1[13]\
		   rdata_s1[12]\
		   rdata_s1[11]\
		   rdata_s1[10]\
		   rdata_s1[9]\
		   rdata_s1[8]\
		   rdata_s1[7]\
		   rdata_s1[6]\
		   rdata_s1[5]\
		   rdata_s1[4]\
		   rdata_s1[3]\
		   rdata_s1[2]\
		   rdata_s1[1]\
		   rdata_s1[0]\
		   rresp_s1[1]\
		   rresp_s1[0]\
		   rlast_s1\
		   awready_s2\
		   wready_s2\
		   bvalid_s2\
		   bid_s2[3]\
		   bid_s2[2]\
		   bid_s2[1]\
		   bid_s2[0]\
		   bresp_s2[1]\
		   bresp_s2[0]\
		   arready_s2\
		   rvalid_s2\
		   rid_s2[3]\
		   rid_s2[2]\
		   rid_s2[1]\
		   rid_s2[0]\
		   rdata_s2[127]\
		   rdata_s2[126]\
		   rdata_s2[125]\
		   rdata_s2[124]\
		   rdata_s2[123]\
		   rdata_s2[122]\
		   rdata_s2[121]\
		   rdata_s2[120]\
		   rdata_s2[119]\
		   rdata_s2[118]\
		   rdata_s2[117]\
		   rdata_s2[116]\
		   rdata_s2[115]\
		   rdata_s2[114]\
		   rdata_s2[113]\
		   rdata_s2[112]\
		   rdata_s2[111]\
		   rdata_s2[110]\
		   rdata_s2[109]\
		   rdata_s2[108]\
		   rdata_s2[107]\
		   rdata_s2[106]\
		   rdata_s2[105]\
		   rdata_s2[104]\
		   rdata_s2[103]\
		   rdata_s2[102]\
		   rdata_s2[101]\
		   rdata_s2[100]\
		   rdata_s2[99]\
		   rdata_s2[98]\
		   rdata_s2[97]\
		   rdata_s2[96]\
		   rdata_s2[95]\
		   rdata_s2[94]\
		   rdata_s2[93]\
		   rdata_s2[92]\
		   rdata_s2[91]\
		   rdata_s2[90]\
		   rdata_s2[89]\
		   rdata_s2[88]\
		   rdata_s2[87]\
		   rdata_s2[86]\
		   rdata_s2[85]\
		   rdata_s2[84]\
		   rdata_s2[83]\
		   rdata_s2[82]\
		   rdata_s2[81]\
		   rdata_s2[80]\
		   rdata_s2[79]\
		   rdata_s2[78]\
		   rdata_s2[77]\
		   rdata_s2[76]\
		   rdata_s2[75]\
		   rdata_s2[74]\
		   rdata_s2[73]\
		   rdata_s2[72]\
		   rdata_s2[71]\
		   rdata_s2[70]\
		   rdata_s2[69]\
		   rdata_s2[68]\
		   rdata_s2[67]\
		   rdata_s2[66]\
		   rdata_s2[65]\
		   rdata_s2[64]\
		   rdata_s2[63]\
		   rdata_s2[62]\
		   rdata_s2[61]\
		   rdata_s2[60]\
		   rdata_s2[59]\
		   rdata_s2[58]\
		   rdata_s2[57]\
		   rdata_s2[56]\
		   rdata_s2[55]\
		   rdata_s2[54]\
		   rdata_s2[53]\
		   rdata_s2[52]\
		   rdata_s2[51]\
		   rdata_s2[50]\
		   rdata_s2[49]\
		   rdata_s2[48]\
		   rdata_s2[47]\
		   rdata_s2[46]\
		   rdata_s2[45]\
		   rdata_s2[44]\
		   rdata_s2[43]\
		   rdata_s2[42]\
		   rdata_s2[41]\
		   rdata_s2[40]\
		   rdata_s2[39]\
		   rdata_s2[38]\
		   rdata_s2[37]\
		   rdata_s2[36]\
		   rdata_s2[35]\
		   rdata_s2[34]\
		   rdata_s2[33]\
		   rdata_s2[32]\
		   rdata_s2[31]\
		   rdata_s2[30]\
		   rdata_s2[29]\
		   rdata_s2[28]\
		   rdata_s2[27]\
		   rdata_s2[26]\
		   rdata_s2[25]\
		   rdata_s2[24]\
		   rdata_s2[23]\
		   rdata_s2[22]\
		   rdata_s2[21]\
		   rdata_s2[20]\
		   rdata_s2[19]\
		   rdata_s2[18]\
		   rdata_s2[17]\
		   rdata_s2[16]\
		   rdata_s2[15]\
		   rdata_s2[14]\
		   rdata_s2[13]\
		   rdata_s2[12]\
		   rdata_s2[11]\
		   rdata_s2[10]\
		   rdata_s2[9]\
		   rdata_s2[8]\
		   rdata_s2[7]\
		   rdata_s2[6]\
		   rdata_s2[5]\
		   rdata_s2[4]\
		   rdata_s2[3]\
		   rdata_s2[2]\
		   rdata_s2[1]\
		   rdata_s2[0]\
		   rresp_s2[1]\
		   rresp_s2[0]\
		   rlast_s2\
		   awready_s3\
		   wready_s3\
		   bvalid_s3\
		   bid_s3[3]\
		   bid_s3[2]\
		   bid_s3[1]\
		   bid_s3[0]\
		   bresp_s3[1]\
		   bresp_s3[0]\
		   arready_s3\
		   rvalid_s3\
		   rid_s3[3]\
		   rid_s3[2]\
		   rid_s3[1]\
		   rid_s3[0]\
		   rdata_s3[127]\
		   rdata_s3[126]\
		   rdata_s3[125]\
		   rdata_s3[124]\
		   rdata_s3[123]\
		   rdata_s3[122]\
		   rdata_s3[121]\
		   rdata_s3[120]\
		   rdata_s3[119]\
		   rdata_s3[118]\
		   rdata_s3[117]\
		   rdata_s3[116]\
		   rdata_s3[115]\
		   rdata_s3[114]\
		   rdata_s3[113]\
		   rdata_s3[112]\
		   rdata_s3[111]\
		   rdata_s3[110]\
		   rdata_s3[109]\
		   rdata_s3[108]\
		   rdata_s3[107]\
		   rdata_s3[106]\
		   rdata_s3[105]\
		   rdata_s3[104]\
		   rdata_s3[103]\
		   rdata_s3[102]\
		   rdata_s3[101]\
		   rdata_s3[100]\
		   rdata_s3[99]\
		   rdata_s3[98]\
		   rdata_s3[97]\
		   rdata_s3[96]\
		   rdata_s3[95]\
		   rdata_s3[94]\
		   rdata_s3[93]\
		   rdata_s3[92]\
		   rdata_s3[91]\
		   rdata_s3[90]\
		   rdata_s3[89]\
		   rdata_s3[88]\
		   rdata_s3[87]\
		   rdata_s3[86]\
		   rdata_s3[85]\
		   rdata_s3[84]\
		   rdata_s3[83]\
		   rdata_s3[82]\
		   rdata_s3[81]\
		   rdata_s3[80]\
		   rdata_s3[79]\
		   rdata_s3[78]\
		   rdata_s3[77]\
		   rdata_s3[76]\
		   rdata_s3[75]\
		   rdata_s3[74]\
		   rdata_s3[73]\
		   rdata_s3[72]\
		   rdata_s3[71]\
		   rdata_s3[70]\
		   rdata_s3[69]\
		   rdata_s3[68]\
		   rdata_s3[67]\
		   rdata_s3[66]\
		   rdata_s3[65]\
		   rdata_s3[64]\
		   rdata_s3[63]\
		   rdata_s3[62]\
		   rdata_s3[61]\
		   rdata_s3[60]\
		   rdata_s3[59]\
		   rdata_s3[58]\
		   rdata_s3[57]\
		   rdata_s3[56]\
		   rdata_s3[55]\
		   rdata_s3[54]\
		   rdata_s3[53]\
		   rdata_s3[52]\
		   rdata_s3[51]\
		   rdata_s3[50]\
		   rdata_s3[49]\
		   rdata_s3[48]\
		   rdata_s3[47]\
		   rdata_s3[46]\
		   rdata_s3[45]\
		   rdata_s3[44]\
		   rdata_s3[43]\
		   rdata_s3[42]\
		   rdata_s3[41]\
		   rdata_s3[40]\
		   rdata_s3[39]\
		   rdata_s3[38]\
		   rdata_s3[37]\
		   rdata_s3[36]\
		   rdata_s3[35]\
		   rdata_s3[34]\
		   rdata_s3[33]\
		   rdata_s3[32]\
		   rdata_s3[31]\
		   rdata_s3[30]\
		   rdata_s3[29]\
		   rdata_s3[28]\
		   rdata_s3[27]\
		   rdata_s3[26]\
		   rdata_s3[25]\
		   rdata_s3[24]\
		   rdata_s3[23]\
		   rdata_s3[22]\
		   rdata_s3[21]\
		   rdata_s3[20]\
		   rdata_s3[19]\
		   rdata_s3[18]\
		   rdata_s3[17]\
		   rdata_s3[16]\
		   rdata_s3[15]\
		   rdata_s3[14]\
		   rdata_s3[13]\
		   rdata_s3[12]\
		   rdata_s3[11]\
		   rdata_s3[10]\
		   rdata_s3[9]\
		   rdata_s3[8]\
		   rdata_s3[7]\
		   rdata_s3[6]\
		   rdata_s3[5]\
		   rdata_s3[4]\
		   rdata_s3[3]\
		   rdata_s3[2]\
		   rdata_s3[1]\
		   rdata_s3[0]\
		   rresp_s3[1]\
		   rresp_s3[0]\
		   rlast_s3\
		   awready_s4\
		   wready_s4\
		   bvalid_s4\
		   bid_s4[3]\
		   bid_s4[2]\
		   bid_s4[1]\
		   bid_s4[0]\
		   bresp_s4[1]\
		   bresp_s4[0]\
		   arready_s4\
		   rvalid_s4\
		   rid_s4[3]\
		   rid_s4[2]\
		   rid_s4[1]\
		   rid_s4[0]\
		   rdata_s4[127]\
		   rdata_s4[126]\
		   rdata_s4[125]\
		   rdata_s4[124]\
		   rdata_s4[123]\
		   rdata_s4[122]\
		   rdata_s4[121]\
		   rdata_s4[120]\
		   rdata_s4[119]\
		   rdata_s4[118]\
		   rdata_s4[117]\
		   rdata_s4[116]\
		   rdata_s4[115]\
		   rdata_s4[114]\
		   rdata_s4[113]\
		   rdata_s4[112]\
		   rdata_s4[111]\
		   rdata_s4[110]\
		   rdata_s4[109]\
		   rdata_s4[108]\
		   rdata_s4[107]\
		   rdata_s4[106]\
		   rdata_s4[105]\
		   rdata_s4[104]\
		   rdata_s4[103]\
		   rdata_s4[102]\
		   rdata_s4[101]\
		   rdata_s4[100]\
		   rdata_s4[99]\
		   rdata_s4[98]\
		   rdata_s4[97]\
		   rdata_s4[96]\
		   rdata_s4[95]\
		   rdata_s4[94]\
		   rdata_s4[93]\
		   rdata_s4[92]\
		   rdata_s4[91]\
		   rdata_s4[90]\
		   rdata_s4[89]\
		   rdata_s4[88]\
		   rdata_s4[87]\
		   rdata_s4[86]\
		   rdata_s4[85]\
		   rdata_s4[84]\
		   rdata_s4[83]\
		   rdata_s4[82]\
		   rdata_s4[81]\
		   rdata_s4[80]\
		   rdata_s4[79]\
		   rdata_s4[78]\
		   rdata_s4[77]\
		   rdata_s4[76]\
		   rdata_s4[75]\
		   rdata_s4[74]\
		   rdata_s4[73]\
		   rdata_s4[72]\
		   rdata_s4[71]\
		   rdata_s4[70]\
		   rdata_s4[69]\
		   rdata_s4[68]\
		   rdata_s4[67]\
		   rdata_s4[66]\
		   rdata_s4[65]\
		   rdata_s4[64]\
		   rdata_s4[63]\
		   rdata_s4[62]\
		   rdata_s4[61]\
		   rdata_s4[60]\
		   rdata_s4[59]\
		   rdata_s4[58]\
		   rdata_s4[57]\
		   rdata_s4[56]\
		   rdata_s4[55]\
		   rdata_s4[54]\
		   rdata_s4[53]\
		   rdata_s4[52]\
		   rdata_s4[51]\
		   rdata_s4[50]\
		   rdata_s4[49]\
		   rdata_s4[48]\
		   rdata_s4[47]\
		   rdata_s4[46]\
		   rdata_s4[45]\
		   rdata_s4[44]\
		   rdata_s4[43]\
		   rdata_s4[42]\
		   rdata_s4[41]\
		   rdata_s4[40]\
		   rdata_s4[39]\
		   rdata_s4[38]\
		   rdata_s4[37]\
		   rdata_s4[36]\
		   rdata_s4[35]\
		   rdata_s4[34]\
		   rdata_s4[33]\
		   rdata_s4[32]\
		   rdata_s4[31]\
		   rdata_s4[30]\
		   rdata_s4[29]\
		   rdata_s4[28]\
		   rdata_s4[27]\
		   rdata_s4[26]\
		   rdata_s4[25]\
		   rdata_s4[24]\
		   rdata_s4[23]\
		   rdata_s4[22]\
		   rdata_s4[21]\
		   rdata_s4[20]\
		   rdata_s4[19]\
		   rdata_s4[18]\
		   rdata_s4[17]\
		   rdata_s4[16]\
		   rdata_s4[15]\
		   rdata_s4[14]\
		   rdata_s4[13]\
		   rdata_s4[12]\
		   rdata_s4[11]\
		   rdata_s4[10]\
		   rdata_s4[9]\
		   rdata_s4[8]\
		   rdata_s4[7]\
		   rdata_s4[6]\
		   rdata_s4[5]\
		   rdata_s4[4]\
		   rdata_s4[3]\
		   rdata_s4[2]\
		   rdata_s4[1]\
		   rdata_s4[0]\
		   rresp_s4[1]\
		   rresp_s4[0]\
		   rlast_s4\
		   awready_s5\
		   wready_s5\
		   bvalid_s5\
		   bid_s5[3]\
		   bid_s5[2]\
		   bid_s5[1]\
		   bid_s5[0]\
		   bresp_s5[1]\
		   bresp_s5[0]\
		   arready_s5\
		   rvalid_s5\
		   rid_s5[3]\
		   rid_s5[2]\
		   rid_s5[1]\
		   rid_s5[0]\
		   rdata_s5[127]\
		   rdata_s5[126]\
		   rdata_s5[125]\
		   rdata_s5[124]\
		   rdata_s5[123]\
		   rdata_s5[122]\
		   rdata_s5[121]\
		   rdata_s5[120]\
		   rdata_s5[119]\
		   rdata_s5[118]\
		   rdata_s5[117]\
		   rdata_s5[116]\
		   rdata_s5[115]\
		   rdata_s5[114]\
		   rdata_s5[113]\
		   rdata_s5[112]\
		   rdata_s5[111]\
		   rdata_s5[110]\
		   rdata_s5[109]\
		   rdata_s5[108]\
		   rdata_s5[107]\
		   rdata_s5[106]\
		   rdata_s5[105]\
		   rdata_s5[104]\
		   rdata_s5[103]\
		   rdata_s5[102]\
		   rdata_s5[101]\
		   rdata_s5[100]\
		   rdata_s5[99]\
		   rdata_s5[98]\
		   rdata_s5[97]\
		   rdata_s5[96]\
		   rdata_s5[95]\
		   rdata_s5[94]\
		   rdata_s5[93]\
		   rdata_s5[92]\
		   rdata_s5[91]\
		   rdata_s5[90]\
		   rdata_s5[89]\
		   rdata_s5[88]\
		   rdata_s5[87]\
		   rdata_s5[86]\
		   rdata_s5[85]\
		   rdata_s5[84]\
		   rdata_s5[83]\
		   rdata_s5[82]\
		   rdata_s5[81]\
		   rdata_s5[80]\
		   rdata_s5[79]\
		   rdata_s5[78]\
		   rdata_s5[77]\
		   rdata_s5[76]\
		   rdata_s5[75]\
		   rdata_s5[74]\
		   rdata_s5[73]\
		   rdata_s5[72]\
		   rdata_s5[71]\
		   rdata_s5[70]\
		   rdata_s5[69]\
		   rdata_s5[68]\
		   rdata_s5[67]\
		   rdata_s5[66]\
		   rdata_s5[65]\
		   rdata_s5[64]\
		   rdata_s5[63]\
		   rdata_s5[62]\
		   rdata_s5[61]\
		   rdata_s5[60]\
		   rdata_s5[59]\
		   rdata_s5[58]\
		   rdata_s5[57]\
		   rdata_s5[56]\
		   rdata_s5[55]\
		   rdata_s5[54]\
		   rdata_s5[53]\
		   rdata_s5[52]\
		   rdata_s5[51]\
		   rdata_s5[50]\
		   rdata_s5[49]\
		   rdata_s5[48]\
		   rdata_s5[47]\
		   rdata_s5[46]\
		   rdata_s5[45]\
		   rdata_s5[44]\
		   rdata_s5[43]\
		   rdata_s5[42]\
		   rdata_s5[41]\
		   rdata_s5[40]\
		   rdata_s5[39]\
		   rdata_s5[38]\
		   rdata_s5[37]\
		   rdata_s5[36]\
		   rdata_s5[35]\
		   rdata_s5[34]\
		   rdata_s5[33]\
		   rdata_s5[32]\
		   rdata_s5[31]\
		   rdata_s5[30]\
		   rdata_s5[29]\
		   rdata_s5[28]\
		   rdata_s5[27]\
		   rdata_s5[26]\
		   rdata_s5[25]\
		   rdata_s5[24]\
		   rdata_s5[23]\
		   rdata_s5[22]\
		   rdata_s5[21]\
		   rdata_s5[20]\
		   rdata_s5[19]\
		   rdata_s5[18]\
		   rdata_s5[17]\
		   rdata_s5[16]\
		   rdata_s5[15]\
		   rdata_s5[14]\
		   rdata_s5[13]\
		   rdata_s5[12]\
		   rdata_s5[11]\
		   rdata_s5[10]\
		   rdata_s5[9]\
		   rdata_s5[8]\
		   rdata_s5[7]\
		   rdata_s5[6]\
		   rdata_s5[5]\
		   rdata_s5[4]\
		   rdata_s5[3]\
		   rdata_s5[2]\
		   rdata_s5[1]\
		   rdata_s5[0]\
		   rresp_s5[1]\
		   rresp_s5[0]\
		   rlast_s5\
		   awready_s6\
		   wready_s6\
		   bvalid_s6\
		   bid_s6[3]\
		   bid_s6[2]\
		   bid_s6[1]\
		   bid_s6[0]\
		   bresp_s6[1]\
		   bresp_s6[0]\
		   arready_s6\
		   rvalid_s6\
		   rid_s6[3]\
		   rid_s6[2]\
		   rid_s6[1]\
		   rid_s6[0]\
		   rdata_s6[127]\
		   rdata_s6[126]\
		   rdata_s6[125]\
		   rdata_s6[124]\
		   rdata_s6[123]\
		   rdata_s6[122]\
		   rdata_s6[121]\
		   rdata_s6[120]\
		   rdata_s6[119]\
		   rdata_s6[118]\
		   rdata_s6[117]\
		   rdata_s6[116]\
		   rdata_s6[115]\
		   rdata_s6[114]\
		   rdata_s6[113]\
		   rdata_s6[112]\
		   rdata_s6[111]\
		   rdata_s6[110]\
		   rdata_s6[109]\
		   rdata_s6[108]\
		   rdata_s6[107]\
		   rdata_s6[106]\
		   rdata_s6[105]\
		   rdata_s6[104]\
		   rdata_s6[103]\
		   rdata_s6[102]\
		   rdata_s6[101]\
		   rdata_s6[100]\
		   rdata_s6[99]\
		   rdata_s6[98]\
		   rdata_s6[97]\
		   rdata_s6[96]\
		   rdata_s6[95]\
		   rdata_s6[94]\
		   rdata_s6[93]\
		   rdata_s6[92]\
		   rdata_s6[91]\
		   rdata_s6[90]\
		   rdata_s6[89]\
		   rdata_s6[88]\
		   rdata_s6[87]\
		   rdata_s6[86]\
		   rdata_s6[85]\
		   rdata_s6[84]\
		   rdata_s6[83]\
		   rdata_s6[82]\
		   rdata_s6[81]\
		   rdata_s6[80]\
		   rdata_s6[79]\
		   rdata_s6[78]\
		   rdata_s6[77]\
		   rdata_s6[76]\
		   rdata_s6[75]\
		   rdata_s6[74]\
		   rdata_s6[73]\
		   rdata_s6[72]\
		   rdata_s6[71]\
		   rdata_s6[70]\
		   rdata_s6[69]\
		   rdata_s6[68]\
		   rdata_s6[67]\
		   rdata_s6[66]\
		   rdata_s6[65]\
		   rdata_s6[64]\
		   rdata_s6[63]\
		   rdata_s6[62]\
		   rdata_s6[61]\
		   rdata_s6[60]\
		   rdata_s6[59]\
		   rdata_s6[58]\
		   rdata_s6[57]\
		   rdata_s6[56]\
		   rdata_s6[55]\
		   rdata_s6[54]\
		   rdata_s6[53]\
		   rdata_s6[52]\
		   rdata_s6[51]\
		   rdata_s6[50]\
		   rdata_s6[49]\
		   rdata_s6[48]\
		   rdata_s6[47]\
		   rdata_s6[46]\
		   rdata_s6[45]\
		   rdata_s6[44]\
		   rdata_s6[43]\
		   rdata_s6[42]\
		   rdata_s6[41]\
		   rdata_s6[40]\
		   rdata_s6[39]\
		   rdata_s6[38]\
		   rdata_s6[37]\
		   rdata_s6[36]\
		   rdata_s6[35]\
		   rdata_s6[34]\
		   rdata_s6[33]\
		   rdata_s6[32]\
		   rdata_s6[31]\
		   rdata_s6[30]\
		   rdata_s6[29]\
		   rdata_s6[28]\
		   rdata_s6[27]\
		   rdata_s6[26]\
		   rdata_s6[25]\
		   rdata_s6[24]\
		   rdata_s6[23]\
		   rdata_s6[22]\
		   rdata_s6[21]\
		   rdata_s6[20]\
		   rdata_s6[19]\
		   rdata_s6[18]\
		   rdata_s6[17]\
		   rdata_s6[16]\
		   rdata_s6[15]\
		   rdata_s6[14]\
		   rdata_s6[13]\
		   rdata_s6[12]\
		   rdata_s6[11]\
		   rdata_s6[10]\
		   rdata_s6[9]\
		   rdata_s6[8]\
		   rdata_s6[7]\
		   rdata_s6[6]\
		   rdata_s6[5]\
		   rdata_s6[4]\
		   rdata_s6[3]\
		   rdata_s6[2]\
		   rdata_s6[1]\
		   rdata_s6[0]\
		   rresp_s6[1]\
		   rresp_s6[0]\
		   rlast_s6\
		   awready_s7\
		   wready_s7\
		   bvalid_s7\
		   bid_s7[3]\
		   bid_s7[2]\
		   bid_s7[1]\
		   bid_s7[0]\
		   bresp_s7[1]\
		   bresp_s7[0]\
		   arready_s7\
		   rvalid_s7\
		   rid_s7[3]\
		   rid_s7[2]\
		   rid_s7[1]\
		   rid_s7[0]\
		   rdata_s7[127]\
		   rdata_s7[126]\
		   rdata_s7[125]\
		   rdata_s7[124]\
		   rdata_s7[123]\
		   rdata_s7[122]\
		   rdata_s7[121]\
		   rdata_s7[120]\
		   rdata_s7[119]\
		   rdata_s7[118]\
		   rdata_s7[117]\
		   rdata_s7[116]\
		   rdata_s7[115]\
		   rdata_s7[114]\
		   rdata_s7[113]\
		   rdata_s7[112]\
		   rdata_s7[111]\
		   rdata_s7[110]\
		   rdata_s7[109]\
		   rdata_s7[108]\
		   rdata_s7[107]\
		   rdata_s7[106]\
		   rdata_s7[105]\
		   rdata_s7[104]\
		   rdata_s7[103]\
		   rdata_s7[102]\
		   rdata_s7[101]\
		   rdata_s7[100]\
		   rdata_s7[99]\
		   rdata_s7[98]\
		   rdata_s7[97]\
		   rdata_s7[96]\
		   rdata_s7[95]\
		   rdata_s7[94]\
		   rdata_s7[93]\
		   rdata_s7[92]\
		   rdata_s7[91]\
		   rdata_s7[90]\
		   rdata_s7[89]\
		   rdata_s7[88]\
		   rdata_s7[87]\
		   rdata_s7[86]\
		   rdata_s7[85]\
		   rdata_s7[84]\
		   rdata_s7[83]\
		   rdata_s7[82]\
		   rdata_s7[81]\
		   rdata_s7[80]\
		   rdata_s7[79]\
		   rdata_s7[78]\
		   rdata_s7[77]\
		   rdata_s7[76]\
		   rdata_s7[75]\
		   rdata_s7[74]\
		   rdata_s7[73]\
		   rdata_s7[72]\
		   rdata_s7[71]\
		   rdata_s7[70]\
		   rdata_s7[69]\
		   rdata_s7[68]\
		   rdata_s7[67]\
		   rdata_s7[66]\
		   rdata_s7[65]\
		   rdata_s7[64]\
		   rdata_s7[63]\
		   rdata_s7[62]\
		   rdata_s7[61]\
		   rdata_s7[60]\
		   rdata_s7[59]\
		   rdata_s7[58]\
		   rdata_s7[57]\
		   rdata_s7[56]\
		   rdata_s7[55]\
		   rdata_s7[54]\
		   rdata_s7[53]\
		   rdata_s7[52]\
		   rdata_s7[51]\
		   rdata_s7[50]\
		   rdata_s7[49]\
		   rdata_s7[48]\
		   rdata_s7[47]\
		   rdata_s7[46]\
		   rdata_s7[45]\
		   rdata_s7[44]\
		   rdata_s7[43]\
		   rdata_s7[42]\
		   rdata_s7[41]\
		   rdata_s7[40]\
		   rdata_s7[39]\
		   rdata_s7[38]\
		   rdata_s7[37]\
		   rdata_s7[36]\
		   rdata_s7[35]\
		   rdata_s7[34]\
		   rdata_s7[33]\
		   rdata_s7[32]\
		   rdata_s7[31]\
		   rdata_s7[30]\
		   rdata_s7[29]\
		   rdata_s7[28]\
		   rdata_s7[27]\
		   rdata_s7[26]\
		   rdata_s7[25]\
		   rdata_s7[24]\
		   rdata_s7[23]\
		   rdata_s7[22]\
		   rdata_s7[21]\
		   rdata_s7[20]\
		   rdata_s7[19]\
		   rdata_s7[18]\
		   rdata_s7[17]\
		   rdata_s7[16]\
		   rdata_s7[15]\
		   rdata_s7[14]\
		   rdata_s7[13]\
		   rdata_s7[12]\
		   rdata_s7[11]\
		   rdata_s7[10]\
		   rdata_s7[9]\
		   rdata_s7[8]\
		   rdata_s7[7]\
		   rdata_s7[6]\
		   rdata_s7[5]\
		   rdata_s7[4]\
		   rdata_s7[3]\
		   rdata_s7[2]\
		   rdata_s7[1]\
		   rdata_s7[0]\
		   rresp_s7[1]\
		   rresp_s7[0]\
		   rlast_s7\
		   remap_n }\
	-to      { awready_m1\
		   wready_m1\
		   bvalid_m1\
		   bid_m1[3]\
		   bid_m1[2]\
		   bid_m1[1]\
		   bid_m1[0]\
		   bresp_m1[1]\
		   bresp_m1[0]\
		   arready_m1\
		   rvalid_m1\
		   rid_m1[3]\
		   rid_m1[2]\
		   rid_m1[1]\
		   rid_m1[0]\
		   rdata_m1[127]\
		   rdata_m1[126]\
		   rdata_m1[125]\
		   rdata_m1[124]\
		   rdata_m1[123]\
		   rdata_m1[122]\
		   rdata_m1[121]\
		   rdata_m1[120]\
		   rdata_m1[119]\
		   rdata_m1[118]\
		   rdata_m1[117]\
		   rdata_m1[116]\
		   rdata_m1[115]\
		   rdata_m1[114]\
		   rdata_m1[113]\
		   rdata_m1[112]\
		   rdata_m1[111]\
		   rdata_m1[110]\
		   rdata_m1[109]\
		   rdata_m1[108]\
		   rdata_m1[107]\
		   rdata_m1[106]\
		   rdata_m1[105]\
		   rdata_m1[104]\
		   rdata_m1[103]\
		   rdata_m1[102]\
		   rdata_m1[101]\
		   rdata_m1[100]\
		   rdata_m1[99]\
		   rdata_m1[98]\
		   rdata_m1[97]\
		   rdata_m1[96]\
		   rdata_m1[95]\
		   rdata_m1[94]\
		   rdata_m1[93]\
		   rdata_m1[92]\
		   rdata_m1[91]\
		   rdata_m1[90]\
		   rdata_m1[89]\
		   rdata_m1[88]\
		   rdata_m1[87]\
		   rdata_m1[86]\
		   rdata_m1[85]\
		   rdata_m1[84]\
		   rdata_m1[83]\
		   rdata_m1[82]\
		   rdata_m1[81]\
		   rdata_m1[80]\
		   rdata_m1[79]\
		   rdata_m1[78]\
		   rdata_m1[77]\
		   rdata_m1[76]\
		   rdata_m1[75]\
		   rdata_m1[74]\
		   rdata_m1[73]\
		   rdata_m1[72]\
		   rdata_m1[71]\
		   rdata_m1[70]\
		   rdata_m1[69]\
		   rdata_m1[68]\
		   rdata_m1[67]\
		   rdata_m1[66]\
		   rdata_m1[65]\
		   rdata_m1[64]\
		   rdata_m1[63]\
		   rdata_m1[62]\
		   rdata_m1[61]\
		   rdata_m1[60]\
		   rdata_m1[59]\
		   rdata_m1[58]\
		   rdata_m1[57]\
		   rdata_m1[56]\
		   rdata_m1[55]\
		   rdata_m1[54]\
		   rdata_m1[53]\
		   rdata_m1[52]\
		   rdata_m1[51]\
		   rdata_m1[50]\
		   rdata_m1[49]\
		   rdata_m1[48]\
		   rdata_m1[47]\
		   rdata_m1[46]\
		   rdata_m1[45]\
		   rdata_m1[44]\
		   rdata_m1[43]\
		   rdata_m1[42]\
		   rdata_m1[41]\
		   rdata_m1[40]\
		   rdata_m1[39]\
		   rdata_m1[38]\
		   rdata_m1[37]\
		   rdata_m1[36]\
		   rdata_m1[35]\
		   rdata_m1[34]\
		   rdata_m1[33]\
		   rdata_m1[32]\
		   rdata_m1[31]\
		   rdata_m1[30]\
		   rdata_m1[29]\
		   rdata_m1[28]\
		   rdata_m1[27]\
		   rdata_m1[26]\
		   rdata_m1[25]\
		   rdata_m1[24]\
		   rdata_m1[23]\
		   rdata_m1[22]\
		   rdata_m1[21]\
		   rdata_m1[20]\
		   rdata_m1[19]\
		   rdata_m1[18]\
		   rdata_m1[17]\
		   rdata_m1[16]\
		   rdata_m1[15]\
		   rdata_m1[14]\
		   rdata_m1[13]\
		   rdata_m1[12]\
		   rdata_m1[11]\
		   rdata_m1[10]\
		   rdata_m1[9]\
		   rdata_m1[8]\
		   rdata_m1[7]\
		   rdata_m1[6]\
		   rdata_m1[5]\
		   rdata_m1[4]\
		   rdata_m1[3]\
		   rdata_m1[2]\
		   rdata_m1[1]\
		   rdata_m1[0]\
		   rresp_m1[1]\
		   rresp_m1[0]\
		   rlast_m1\
		   awvalid_s1\
		   awaddr_s1[31]\
		   awaddr_s1[30]\
		   awaddr_s1[29]\
		   awaddr_s1[28]\
		   awaddr_s1[27]\
		   awaddr_s1[26]\
		   awaddr_s1[25]\
		   awaddr_s1[24]\
		   awaddr_s1[23]\
		   awaddr_s1[22]\
		   awaddr_s1[21]\
		   awaddr_s1[20]\
		   awaddr_s1[19]\
		   awaddr_s1[18]\
		   awaddr_s1[17]\
		   awaddr_s1[16]\
		   awaddr_s1[15]\
		   awaddr_s1[14]\
		   awaddr_s1[13]\
		   awaddr_s1[12]\
		   awaddr_s1[11]\
		   awaddr_s1[10]\
		   awaddr_s1[9]\
		   awaddr_s1[8]\
		   awaddr_s1[7]\
		   awaddr_s1[6]\
		   awaddr_s1[5]\
		   awaddr_s1[4]\
		   awaddr_s1[3]\
		   awaddr_s1[2]\
		   awaddr_s1[1]\
		   awaddr_s1[0]\
		   awid_s1[3]\
		   awid_s1[2]\
		   awid_s1[1]\
		   awid_s1[0]\
		   awlen_s1[3]\
		   awlen_s1[2]\
		   awlen_s1[1]\
		   awlen_s1[0]\
		   awsize_s1[2]\
		   awsize_s1[1]\
		   awsize_s1[0]\
		   awburst_s1[1]\
		   awburst_s1[0]\
		   awlock_s1[1]\
		   awlock_s1[0]\
		   awcache_s1[3]\
		   awcache_s1[2]\
		   awcache_s1[1]\
		   awcache_s1[0]\
		   awprot_s1[2]\
		   awprot_s1[1]\
		   awprot_s1[0]\
		   wvalid_s1\
		   wid_s1[3]\
		   wid_s1[2]\
		   wid_s1[1]\
		   wid_s1[0]\
		   wdata_s1[127]\
		   wdata_s1[126]\
		   wdata_s1[125]\
		   wdata_s1[124]\
		   wdata_s1[123]\
		   wdata_s1[122]\
		   wdata_s1[121]\
		   wdata_s1[120]\
		   wdata_s1[119]\
		   wdata_s1[118]\
		   wdata_s1[117]\
		   wdata_s1[116]\
		   wdata_s1[115]\
		   wdata_s1[114]\
		   wdata_s1[113]\
		   wdata_s1[112]\
		   wdata_s1[111]\
		   wdata_s1[110]\
		   wdata_s1[109]\
		   wdata_s1[108]\
		   wdata_s1[107]\
		   wdata_s1[106]\
		   wdata_s1[105]\
		   wdata_s1[104]\
		   wdata_s1[103]\
		   wdata_s1[102]\
		   wdata_s1[101]\
		   wdata_s1[100]\
		   wdata_s1[99]\
		   wdata_s1[98]\
		   wdata_s1[97]\
		   wdata_s1[96]\
		   wdata_s1[95]\
		   wdata_s1[94]\
		   wdata_s1[93]\
		   wdata_s1[92]\
		   wdata_s1[91]\
		   wdata_s1[90]\
		   wdata_s1[89]\
		   wdata_s1[88]\
		   wdata_s1[87]\
		   wdata_s1[86]\
		   wdata_s1[85]\
		   wdata_s1[84]\
		   wdata_s1[83]\
		   wdata_s1[82]\
		   wdata_s1[81]\
		   wdata_s1[80]\
		   wdata_s1[79]\
		   wdata_s1[78]\
		   wdata_s1[77]\
		   wdata_s1[76]\
		   wdata_s1[75]\
		   wdata_s1[74]\
		   wdata_s1[73]\
		   wdata_s1[72]\
		   wdata_s1[71]\
		   wdata_s1[70]\
		   wdata_s1[69]\
		   wdata_s1[68]\
		   wdata_s1[67]\
		   wdata_s1[66]\
		   wdata_s1[65]\
		   wdata_s1[64]\
		   wdata_s1[63]\
		   wdata_s1[62]\
		   wdata_s1[61]\
		   wdata_s1[60]\
		   wdata_s1[59]\
		   wdata_s1[58]\
		   wdata_s1[57]\
		   wdata_s1[56]\
		   wdata_s1[55]\
		   wdata_s1[54]\
		   wdata_s1[53]\
		   wdata_s1[52]\
		   wdata_s1[51]\
		   wdata_s1[50]\
		   wdata_s1[49]\
		   wdata_s1[48]\
		   wdata_s1[47]\
		   wdata_s1[46]\
		   wdata_s1[45]\
		   wdata_s1[44]\
		   wdata_s1[43]\
		   wdata_s1[42]\
		   wdata_s1[41]\
		   wdata_s1[40]\
		   wdata_s1[39]\
		   wdata_s1[38]\
		   wdata_s1[37]\
		   wdata_s1[36]\
		   wdata_s1[35]\
		   wdata_s1[34]\
		   wdata_s1[33]\
		   wdata_s1[32]\
		   wdata_s1[31]\
		   wdata_s1[30]\
		   wdata_s1[29]\
		   wdata_s1[28]\
		   wdata_s1[27]\
		   wdata_s1[26]\
		   wdata_s1[25]\
		   wdata_s1[24]\
		   wdata_s1[23]\
		   wdata_s1[22]\
		   wdata_s1[21]\
		   wdata_s1[20]\
		   wdata_s1[19]\
		   wdata_s1[18]\
		   wdata_s1[17]\
		   wdata_s1[16]\
		   wdata_s1[15]\
		   wdata_s1[14]\
		   wdata_s1[13]\
		   wdata_s1[12]\
		   wdata_s1[11]\
		   wdata_s1[10]\
		   wdata_s1[9]\
		   wdata_s1[8]\
		   wdata_s1[7]\
		   wdata_s1[6]\
		   wdata_s1[5]\
		   wdata_s1[4]\
		   wdata_s1[3]\
		   wdata_s1[2]\
		   wdata_s1[1]\
		   wdata_s1[0]\
		   wstrb_s1[15]\
		   wstrb_s1[14]\
		   wstrb_s1[13]\
		   wstrb_s1[12]\
		   wstrb_s1[11]\
		   wstrb_s1[10]\
		   wstrb_s1[9]\
		   wstrb_s1[8]\
		   wstrb_s1[7]\
		   wstrb_s1[6]\
		   wstrb_s1[5]\
		   wstrb_s1[4]\
		   wstrb_s1[3]\
		   wstrb_s1[2]\
		   wstrb_s1[1]\
		   wstrb_s1[0]\
		   wlast_s1\
		   bready_s1\
		   arvalid_s1\
		   arid_s1[3]\
		   arid_s1[2]\
		   arid_s1[1]\
		   arid_s1[0]\
		   araddr_s1[31]\
		   araddr_s1[30]\
		   araddr_s1[29]\
		   araddr_s1[28]\
		   araddr_s1[27]\
		   araddr_s1[26]\
		   araddr_s1[25]\
		   araddr_s1[24]\
		   araddr_s1[23]\
		   araddr_s1[22]\
		   araddr_s1[21]\
		   araddr_s1[20]\
		   araddr_s1[19]\
		   araddr_s1[18]\
		   araddr_s1[17]\
		   araddr_s1[16]\
		   araddr_s1[15]\
		   araddr_s1[14]\
		   araddr_s1[13]\
		   araddr_s1[12]\
		   araddr_s1[11]\
		   araddr_s1[10]\
		   araddr_s1[9]\
		   araddr_s1[8]\
		   araddr_s1[7]\
		   araddr_s1[6]\
		   araddr_s1[5]\
		   araddr_s1[4]\
		   araddr_s1[3]\
		   araddr_s1[2]\
		   araddr_s1[1]\
		   araddr_s1[0]\
		   arlen_s1[3]\
		   arlen_s1[2]\
		   arlen_s1[1]\
		   arlen_s1[0]\
		   arsize_s1[2]\
		   arsize_s1[1]\
		   arsize_s1[0]\
		   arburst_s1[1]\
		   arburst_s1[0]\
		   arlock_s1[1]\
		   arlock_s1[0]\
		   arcache_s1[3]\
		   arcache_s1[2]\
		   arcache_s1[1]\
		   arcache_s1[0]\
		   arprot_s1[2]\
		   arprot_s1[1]\
		   arprot_s1[0]\
		   rready_s1\
		   awvalid_s2\
		   awaddr_s2[31]\
		   awaddr_s2[30]\
		   awaddr_s2[29]\
		   awaddr_s2[28]\
		   awaddr_s2[27]\
		   awaddr_s2[26]\
		   awaddr_s2[25]\
		   awaddr_s2[24]\
		   awaddr_s2[23]\
		   awaddr_s2[22]\
		   awaddr_s2[21]\
		   awaddr_s2[20]\
		   awaddr_s2[19]\
		   awaddr_s2[18]\
		   awaddr_s2[17]\
		   awaddr_s2[16]\
		   awaddr_s2[15]\
		   awaddr_s2[14]\
		   awaddr_s2[13]\
		   awaddr_s2[12]\
		   awaddr_s2[11]\
		   awaddr_s2[10]\
		   awaddr_s2[9]\
		   awaddr_s2[8]\
		   awaddr_s2[7]\
		   awaddr_s2[6]\
		   awaddr_s2[5]\
		   awaddr_s2[4]\
		   awaddr_s2[3]\
		   awaddr_s2[2]\
		   awaddr_s2[1]\
		   awaddr_s2[0]\
		   awid_s2[3]\
		   awid_s2[2]\
		   awid_s2[1]\
		   awid_s2[0]\
		   awlen_s2[3]\
		   awlen_s2[2]\
		   awlen_s2[1]\
		   awlen_s2[0]\
		   awsize_s2[2]\
		   awsize_s2[1]\
		   awsize_s2[0]\
		   awburst_s2[1]\
		   awburst_s2[0]\
		   awlock_s2[1]\
		   awlock_s2[0]\
		   awcache_s2[3]\
		   awcache_s2[2]\
		   awcache_s2[1]\
		   awcache_s2[0]\
		   awprot_s2[2]\
		   awprot_s2[1]\
		   awprot_s2[0]\
		   wvalid_s2\
		   wid_s2[3]\
		   wid_s2[2]\
		   wid_s2[1]\
		   wid_s2[0]\
		   wdata_s2[127]\
		   wdata_s2[126]\
		   wdata_s2[125]\
		   wdata_s2[124]\
		   wdata_s2[123]\
		   wdata_s2[122]\
		   wdata_s2[121]\
		   wdata_s2[120]\
		   wdata_s2[119]\
		   wdata_s2[118]\
		   wdata_s2[117]\
		   wdata_s2[116]\
		   wdata_s2[115]\
		   wdata_s2[114]\
		   wdata_s2[113]\
		   wdata_s2[112]\
		   wdata_s2[111]\
		   wdata_s2[110]\
		   wdata_s2[109]\
		   wdata_s2[108]\
		   wdata_s2[107]\
		   wdata_s2[106]\
		   wdata_s2[105]\
		   wdata_s2[104]\
		   wdata_s2[103]\
		   wdata_s2[102]\
		   wdata_s2[101]\
		   wdata_s2[100]\
		   wdata_s2[99]\
		   wdata_s2[98]\
		   wdata_s2[97]\
		   wdata_s2[96]\
		   wdata_s2[95]\
		   wdata_s2[94]\
		   wdata_s2[93]\
		   wdata_s2[92]\
		   wdata_s2[91]\
		   wdata_s2[90]\
		   wdata_s2[89]\
		   wdata_s2[88]\
		   wdata_s2[87]\
		   wdata_s2[86]\
		   wdata_s2[85]\
		   wdata_s2[84]\
		   wdata_s2[83]\
		   wdata_s2[82]\
		   wdata_s2[81]\
		   wdata_s2[80]\
		   wdata_s2[79]\
		   wdata_s2[78]\
		   wdata_s2[77]\
		   wdata_s2[76]\
		   wdata_s2[75]\
		   wdata_s2[74]\
		   wdata_s2[73]\
		   wdata_s2[72]\
		   wdata_s2[71]\
		   wdata_s2[70]\
		   wdata_s2[69]\
		   wdata_s2[68]\
		   wdata_s2[67]\
		   wdata_s2[66]\
		   wdata_s2[65]\
		   wdata_s2[64]\
		   wdata_s2[63]\
		   wdata_s2[62]\
		   wdata_s2[61]\
		   wdata_s2[60]\
		   wdata_s2[59]\
		   wdata_s2[58]\
		   wdata_s2[57]\
		   wdata_s2[56]\
		   wdata_s2[55]\
		   wdata_s2[54]\
		   wdata_s2[53]\
		   wdata_s2[52]\
		   wdata_s2[51]\
		   wdata_s2[50]\
		   wdata_s2[49]\
		   wdata_s2[48]\
		   wdata_s2[47]\
		   wdata_s2[46]\
		   wdata_s2[45]\
		   wdata_s2[44]\
		   wdata_s2[43]\
		   wdata_s2[42]\
		   wdata_s2[41]\
		   wdata_s2[40]\
		   wdata_s2[39]\
		   wdata_s2[38]\
		   wdata_s2[37]\
		   wdata_s2[36]\
		   wdata_s2[35]\
		   wdata_s2[34]\
		   wdata_s2[33]\
		   wdata_s2[32]\
		   wdata_s2[31]\
		   wdata_s2[30]\
		   wdata_s2[29]\
		   wdata_s2[28]\
		   wdata_s2[27]\
		   wdata_s2[26]\
		   wdata_s2[25]\
		   wdata_s2[24]\
		   wdata_s2[23]\
		   wdata_s2[22]\
		   wdata_s2[21]\
		   wdata_s2[20]\
		   wdata_s2[19]\
		   wdata_s2[18]\
		   wdata_s2[17]\
		   wdata_s2[16]\
		   wdata_s2[15]\
		   wdata_s2[14]\
		   wdata_s2[13]\
		   wdata_s2[12]\
		   wdata_s2[11]\
		   wdata_s2[10]\
		   wdata_s2[9]\
		   wdata_s2[8]\
		   wdata_s2[7]\
		   wdata_s2[6]\
		   wdata_s2[5]\
		   wdata_s2[4]\
		   wdata_s2[3]\
		   wdata_s2[2]\
		   wdata_s2[1]\
		   wdata_s2[0]\
		   wstrb_s2[15]\
		   wstrb_s2[14]\
		   wstrb_s2[13]\
		   wstrb_s2[12]\
		   wstrb_s2[11]\
		   wstrb_s2[10]\
		   wstrb_s2[9]\
		   wstrb_s2[8]\
		   wstrb_s2[7]\
		   wstrb_s2[6]\
		   wstrb_s2[5]\
		   wstrb_s2[4]\
		   wstrb_s2[3]\
		   wstrb_s2[2]\
		   wstrb_s2[1]\
		   wstrb_s2[0]\
		   wlast_s2\
		   bready_s2\
		   arvalid_s2\
		   arid_s2[3]\
		   arid_s2[2]\
		   arid_s2[1]\
		   arid_s2[0]\
		   araddr_s2[31]\
		   araddr_s2[30]\
		   araddr_s2[29]\
		   araddr_s2[28]\
		   araddr_s2[27]\
		   araddr_s2[26]\
		   araddr_s2[25]\
		   araddr_s2[24]\
		   araddr_s2[23]\
		   araddr_s2[22]\
		   araddr_s2[21]\
		   araddr_s2[20]\
		   araddr_s2[19]\
		   araddr_s2[18]\
		   araddr_s2[17]\
		   araddr_s2[16]\
		   araddr_s2[15]\
		   araddr_s2[14]\
		   araddr_s2[13]\
		   araddr_s2[12]\
		   araddr_s2[11]\
		   araddr_s2[10]\
		   araddr_s2[9]\
		   araddr_s2[8]\
		   araddr_s2[7]\
		   araddr_s2[6]\
		   araddr_s2[5]\
		   araddr_s2[4]\
		   araddr_s2[3]\
		   araddr_s2[2]\
		   araddr_s2[1]\
		   araddr_s2[0]\
		   arlen_s2[3]\
		   arlen_s2[2]\
		   arlen_s2[1]\
		   arlen_s2[0]\
		   arsize_s2[2]\
		   arsize_s2[1]\
		   arsize_s2[0]\
		   arburst_s2[1]\
		   arburst_s2[0]\
		   arlock_s2[1]\
		   arlock_s2[0]\
		   arcache_s2[3]\
		   arcache_s2[2]\
		   arcache_s2[1]\
		   arcache_s2[0]\
		   arprot_s2[2]\
		   arprot_s2[1]\
		   arprot_s2[0]\
		   rready_s2\
		   awvalid_s3\
		   awaddr_s3[31]\
		   awaddr_s3[30]\
		   awaddr_s3[29]\
		   awaddr_s3[28]\
		   awaddr_s3[27]\
		   awaddr_s3[26]\
		   awaddr_s3[25]\
		   awaddr_s3[24]\
		   awaddr_s3[23]\
		   awaddr_s3[22]\
		   awaddr_s3[21]\
		   awaddr_s3[20]\
		   awaddr_s3[19]\
		   awaddr_s3[18]\
		   awaddr_s3[17]\
		   awaddr_s3[16]\
		   awaddr_s3[15]\
		   awaddr_s3[14]\
		   awaddr_s3[13]\
		   awaddr_s3[12]\
		   awaddr_s3[11]\
		   awaddr_s3[10]\
		   awaddr_s3[9]\
		   awaddr_s3[8]\
		   awaddr_s3[7]\
		   awaddr_s3[6]\
		   awaddr_s3[5]\
		   awaddr_s3[4]\
		   awaddr_s3[3]\
		   awaddr_s3[2]\
		   awaddr_s3[1]\
		   awaddr_s3[0]\
		   awid_s3[3]\
		   awid_s3[2]\
		   awid_s3[1]\
		   awid_s3[0]\
		   awlen_s3[3]\
		   awlen_s3[2]\
		   awlen_s3[1]\
		   awlen_s3[0]\
		   awsize_s3[2]\
		   awsize_s3[1]\
		   awsize_s3[0]\
		   awburst_s3[1]\
		   awburst_s3[0]\
		   awlock_s3[1]\
		   awlock_s3[0]\
		   awcache_s3[3]\
		   awcache_s3[2]\
		   awcache_s3[1]\
		   awcache_s3[0]\
		   awprot_s3[2]\
		   awprot_s3[1]\
		   awprot_s3[0]\
		   wvalid_s3\
		   wid_s3[3]\
		   wid_s3[2]\
		   wid_s3[1]\
		   wid_s3[0]\
		   wdata_s3[127]\
		   wdata_s3[126]\
		   wdata_s3[125]\
		   wdata_s3[124]\
		   wdata_s3[123]\
		   wdata_s3[122]\
		   wdata_s3[121]\
		   wdata_s3[120]\
		   wdata_s3[119]\
		   wdata_s3[118]\
		   wdata_s3[117]\
		   wdata_s3[116]\
		   wdata_s3[115]\
		   wdata_s3[114]\
		   wdata_s3[113]\
		   wdata_s3[112]\
		   wdata_s3[111]\
		   wdata_s3[110]\
		   wdata_s3[109]\
		   wdata_s3[108]\
		   wdata_s3[107]\
		   wdata_s3[106]\
		   wdata_s3[105]\
		   wdata_s3[104]\
		   wdata_s3[103]\
		   wdata_s3[102]\
		   wdata_s3[101]\
		   wdata_s3[100]\
		   wdata_s3[99]\
		   wdata_s3[98]\
		   wdata_s3[97]\
		   wdata_s3[96]\
		   wdata_s3[95]\
		   wdata_s3[94]\
		   wdata_s3[93]\
		   wdata_s3[92]\
		   wdata_s3[91]\
		   wdata_s3[90]\
		   wdata_s3[89]\
		   wdata_s3[88]\
		   wdata_s3[87]\
		   wdata_s3[86]\
		   wdata_s3[85]\
		   wdata_s3[84]\
		   wdata_s3[83]\
		   wdata_s3[82]\
		   wdata_s3[81]\
		   wdata_s3[80]\
		   wdata_s3[79]\
		   wdata_s3[78]\
		   wdata_s3[77]\
		   wdata_s3[76]\
		   wdata_s3[75]\
		   wdata_s3[74]\
		   wdata_s3[73]\
		   wdata_s3[72]\
		   wdata_s3[71]\
		   wdata_s3[70]\
		   wdata_s3[69]\
		   wdata_s3[68]\
		   wdata_s3[67]\
		   wdata_s3[66]\
		   wdata_s3[65]\
		   wdata_s3[64]\
		   wdata_s3[63]\
		   wdata_s3[62]\
		   wdata_s3[61]\
		   wdata_s3[60]\
		   wdata_s3[59]\
		   wdata_s3[58]\
		   wdata_s3[57]\
		   wdata_s3[56]\
		   wdata_s3[55]\
		   wdata_s3[54]\
		   wdata_s3[53]\
		   wdata_s3[52]\
		   wdata_s3[51]\
		   wdata_s3[50]\
		   wdata_s3[49]\
		   wdata_s3[48]\
		   wdata_s3[47]\
		   wdata_s3[46]\
		   wdata_s3[45]\
		   wdata_s3[44]\
		   wdata_s3[43]\
		   wdata_s3[42]\
		   wdata_s3[41]\
		   wdata_s3[40]\
		   wdata_s3[39]\
		   wdata_s3[38]\
		   wdata_s3[37]\
		   wdata_s3[36]\
		   wdata_s3[35]\
		   wdata_s3[34]\
		   wdata_s3[33]\
		   wdata_s3[32]\
		   wdata_s3[31]\
		   wdata_s3[30]\
		   wdata_s3[29]\
		   wdata_s3[28]\
		   wdata_s3[27]\
		   wdata_s3[26]\
		   wdata_s3[25]\
		   wdata_s3[24]\
		   wdata_s3[23]\
		   wdata_s3[22]\
		   wdata_s3[21]\
		   wdata_s3[20]\
		   wdata_s3[19]\
		   wdata_s3[18]\
		   wdata_s3[17]\
		   wdata_s3[16]\
		   wdata_s3[15]\
		   wdata_s3[14]\
		   wdata_s3[13]\
		   wdata_s3[12]\
		   wdata_s3[11]\
		   wdata_s3[10]\
		   wdata_s3[9]\
		   wdata_s3[8]\
		   wdata_s3[7]\
		   wdata_s3[6]\
		   wdata_s3[5]\
		   wdata_s3[4]\
		   wdata_s3[3]\
		   wdata_s3[2]\
		   wdata_s3[1]\
		   wdata_s3[0]\
		   wstrb_s3[15]\
		   wstrb_s3[14]\
		   wstrb_s3[13]\
		   wstrb_s3[12]\
		   wstrb_s3[11]\
		   wstrb_s3[10]\
		   wstrb_s3[9]\
		   wstrb_s3[8]\
		   wstrb_s3[7]\
		   wstrb_s3[6]\
		   wstrb_s3[5]\
		   wstrb_s3[4]\
		   wstrb_s3[3]\
		   wstrb_s3[2]\
		   wstrb_s3[1]\
		   wstrb_s3[0]\
		   wlast_s3\
		   bready_s3\
		   arvalid_s3\
		   arid_s3[3]\
		   arid_s3[2]\
		   arid_s3[1]\
		   arid_s3[0]\
		   araddr_s3[31]\
		   araddr_s3[30]\
		   araddr_s3[29]\
		   araddr_s3[28]\
		   araddr_s3[27]\
		   araddr_s3[26]\
		   araddr_s3[25]\
		   araddr_s3[24]\
		   araddr_s3[23]\
		   araddr_s3[22]\
		   araddr_s3[21]\
		   araddr_s3[20]\
		   araddr_s3[19]\
		   araddr_s3[18]\
		   araddr_s3[17]\
		   araddr_s3[16]\
		   araddr_s3[15]\
		   araddr_s3[14]\
		   araddr_s3[13]\
		   araddr_s3[12]\
		   araddr_s3[11]\
		   araddr_s3[10]\
		   araddr_s3[9]\
		   araddr_s3[8]\
		   araddr_s3[7]\
		   araddr_s3[6]\
		   araddr_s3[5]\
		   araddr_s3[4]\
		   araddr_s3[3]\
		   araddr_s3[2]\
		   araddr_s3[1]\
		   araddr_s3[0]\
		   arlen_s3[3]\
		   arlen_s3[2]\
		   arlen_s3[1]\
		   arlen_s3[0]\
		   arsize_s3[2]\
		   arsize_s3[1]\
		   arsize_s3[0]\
		   arburst_s3[1]\
		   arburst_s3[0]\
		   arlock_s3[1]\
		   arlock_s3[0]\
		   arcache_s3[3]\
		   arcache_s3[2]\
		   arcache_s3[1]\
		   arcache_s3[0]\
		   arprot_s3[2]\
		   arprot_s3[1]\
		   arprot_s3[0]\
		   rready_s3\
		   awvalid_s4\
		   awaddr_s4[31]\
		   awaddr_s4[30]\
		   awaddr_s4[29]\
		   awaddr_s4[28]\
		   awaddr_s4[27]\
		   awaddr_s4[26]\
		   awaddr_s4[25]\
		   awaddr_s4[24]\
		   awaddr_s4[23]\
		   awaddr_s4[22]\
		   awaddr_s4[21]\
		   awaddr_s4[20]\
		   awaddr_s4[19]\
		   awaddr_s4[18]\
		   awaddr_s4[17]\
		   awaddr_s4[16]\
		   awaddr_s4[15]\
		   awaddr_s4[14]\
		   awaddr_s4[13]\
		   awaddr_s4[12]\
		   awaddr_s4[11]\
		   awaddr_s4[10]\
		   awaddr_s4[9]\
		   awaddr_s4[8]\
		   awaddr_s4[7]\
		   awaddr_s4[6]\
		   awaddr_s4[5]\
		   awaddr_s4[4]\
		   awaddr_s4[3]\
		   awaddr_s4[2]\
		   awaddr_s4[1]\
		   awaddr_s4[0]\
		   awid_s4[3]\
		   awid_s4[2]\
		   awid_s4[1]\
		   awid_s4[0]\
		   awlen_s4[3]\
		   awlen_s4[2]\
		   awlen_s4[1]\
		   awlen_s4[0]\
		   awsize_s4[2]\
		   awsize_s4[1]\
		   awsize_s4[0]\
		   awburst_s4[1]\
		   awburst_s4[0]\
		   awlock_s4[1]\
		   awlock_s4[0]\
		   awcache_s4[3]\
		   awcache_s4[2]\
		   awcache_s4[1]\
		   awcache_s4[0]\
		   awprot_s4[2]\
		   awprot_s4[1]\
		   awprot_s4[0]\
		   wvalid_s4\
		   wid_s4[3]\
		   wid_s4[2]\
		   wid_s4[1]\
		   wid_s4[0]\
		   wdata_s4[127]\
		   wdata_s4[126]\
		   wdata_s4[125]\
		   wdata_s4[124]\
		   wdata_s4[123]\
		   wdata_s4[122]\
		   wdata_s4[121]\
		   wdata_s4[120]\
		   wdata_s4[119]\
		   wdata_s4[118]\
		   wdata_s4[117]\
		   wdata_s4[116]\
		   wdata_s4[115]\
		   wdata_s4[114]\
		   wdata_s4[113]\
		   wdata_s4[112]\
		   wdata_s4[111]\
		   wdata_s4[110]\
		   wdata_s4[109]\
		   wdata_s4[108]\
		   wdata_s4[107]\
		   wdata_s4[106]\
		   wdata_s4[105]\
		   wdata_s4[104]\
		   wdata_s4[103]\
		   wdata_s4[102]\
		   wdata_s4[101]\
		   wdata_s4[100]\
		   wdata_s4[99]\
		   wdata_s4[98]\
		   wdata_s4[97]\
		   wdata_s4[96]\
		   wdata_s4[95]\
		   wdata_s4[94]\
		   wdata_s4[93]\
		   wdata_s4[92]\
		   wdata_s4[91]\
		   wdata_s4[90]\
		   wdata_s4[89]\
		   wdata_s4[88]\
		   wdata_s4[87]\
		   wdata_s4[86]\
		   wdata_s4[85]\
		   wdata_s4[84]\
		   wdata_s4[83]\
		   wdata_s4[82]\
		   wdata_s4[81]\
		   wdata_s4[80]\
		   wdata_s4[79]\
		   wdata_s4[78]\
		   wdata_s4[77]\
		   wdata_s4[76]\
		   wdata_s4[75]\
		   wdata_s4[74]\
		   wdata_s4[73]\
		   wdata_s4[72]\
		   wdata_s4[71]\
		   wdata_s4[70]\
		   wdata_s4[69]\
		   wdata_s4[68]\
		   wdata_s4[67]\
		   wdata_s4[66]\
		   wdata_s4[65]\
		   wdata_s4[64]\
		   wdata_s4[63]\
		   wdata_s4[62]\
		   wdata_s4[61]\
		   wdata_s4[60]\
		   wdata_s4[59]\
		   wdata_s4[58]\
		   wdata_s4[57]\
		   wdata_s4[56]\
		   wdata_s4[55]\
		   wdata_s4[54]\
		   wdata_s4[53]\
		   wdata_s4[52]\
		   wdata_s4[51]\
		   wdata_s4[50]\
		   wdata_s4[49]\
		   wdata_s4[48]\
		   wdata_s4[47]\
		   wdata_s4[46]\
		   wdata_s4[45]\
		   wdata_s4[44]\
		   wdata_s4[43]\
		   wdata_s4[42]\
		   wdata_s4[41]\
		   wdata_s4[40]\
		   wdata_s4[39]\
		   wdata_s4[38]\
		   wdata_s4[37]\
		   wdata_s4[36]\
		   wdata_s4[35]\
		   wdata_s4[34]\
		   wdata_s4[33]\
		   wdata_s4[32]\
		   wdata_s4[31]\
		   wdata_s4[30]\
		   wdata_s4[29]\
		   wdata_s4[28]\
		   wdata_s4[27]\
		   wdata_s4[26]\
		   wdata_s4[25]\
		   wdata_s4[24]\
		   wdata_s4[23]\
		   wdata_s4[22]\
		   wdata_s4[21]\
		   wdata_s4[20]\
		   wdata_s4[19]\
		   wdata_s4[18]\
		   wdata_s4[17]\
		   wdata_s4[16]\
		   wdata_s4[15]\
		   wdata_s4[14]\
		   wdata_s4[13]\
		   wdata_s4[12]\
		   wdata_s4[11]\
		   wdata_s4[10]\
		   wdata_s4[9]\
		   wdata_s4[8]\
		   wdata_s4[7]\
		   wdata_s4[6]\
		   wdata_s4[5]\
		   wdata_s4[4]\
		   wdata_s4[3]\
		   wdata_s4[2]\
		   wdata_s4[1]\
		   wdata_s4[0]\
		   wstrb_s4[15]\
		   wstrb_s4[14]\
		   wstrb_s4[13]\
		   wstrb_s4[12]\
		   wstrb_s4[11]\
		   wstrb_s4[10]\
		   wstrb_s4[9]\
		   wstrb_s4[8]\
		   wstrb_s4[7]\
		   wstrb_s4[6]\
		   wstrb_s4[5]\
		   wstrb_s4[4]\
		   wstrb_s4[3]\
		   wstrb_s4[2]\
		   wstrb_s4[1]\
		   wstrb_s4[0]\
		   wlast_s4\
		   bready_s4\
		   arvalid_s4\
		   arid_s4[3]\
		   arid_s4[2]\
		   arid_s4[1]\
		   arid_s4[0]\
		   araddr_s4[31]\
		   araddr_s4[30]\
		   araddr_s4[29]\
		   araddr_s4[28]\
		   araddr_s4[27]\
		   araddr_s4[26]\
		   araddr_s4[25]\
		   araddr_s4[24]\
		   araddr_s4[23]\
		   araddr_s4[22]\
		   araddr_s4[21]\
		   araddr_s4[20]\
		   araddr_s4[19]\
		   araddr_s4[18]\
		   araddr_s4[17]\
		   araddr_s4[16]\
		   araddr_s4[15]\
		   araddr_s4[14]\
		   araddr_s4[13]\
		   araddr_s4[12]\
		   araddr_s4[11]\
		   araddr_s4[10]\
		   araddr_s4[9]\
		   araddr_s4[8]\
		   araddr_s4[7]\
		   araddr_s4[6]\
		   araddr_s4[5]\
		   araddr_s4[4]\
		   araddr_s4[3]\
		   araddr_s4[2]\
		   araddr_s4[1]\
		   araddr_s4[0]\
		   arlen_s4[3]\
		   arlen_s4[2]\
		   arlen_s4[1]\
		   arlen_s4[0]\
		   arsize_s4[2]\
		   arsize_s4[1]\
		   arsize_s4[0]\
		   arburst_s4[1]\
		   arburst_s4[0]\
		   arlock_s4[1]\
		   arlock_s4[0]\
		   arcache_s4[3]\
		   arcache_s4[2]\
		   arcache_s4[1]\
		   arcache_s4[0]\
		   arprot_s4[2]\
		   arprot_s4[1]\
		   arprot_s4[0]\
		   rready_s4\
		   awvalid_s5\
		   awaddr_s5[31]\
		   awaddr_s5[30]\
		   awaddr_s5[29]\
		   awaddr_s5[28]\
		   awaddr_s5[27]\
		   awaddr_s5[26]\
		   awaddr_s5[25]\
		   awaddr_s5[24]\
		   awaddr_s5[23]\
		   awaddr_s5[22]\
		   awaddr_s5[21]\
		   awaddr_s5[20]\
		   awaddr_s5[19]\
		   awaddr_s5[18]\
		   awaddr_s5[17]\
		   awaddr_s5[16]\
		   awaddr_s5[15]\
		   awaddr_s5[14]\
		   awaddr_s5[13]\
		   awaddr_s5[12]\
		   awaddr_s5[11]\
		   awaddr_s5[10]\
		   awaddr_s5[9]\
		   awaddr_s5[8]\
		   awaddr_s5[7]\
		   awaddr_s5[6]\
		   awaddr_s5[5]\
		   awaddr_s5[4]\
		   awaddr_s5[3]\
		   awaddr_s5[2]\
		   awaddr_s5[1]\
		   awaddr_s5[0]\
		   awid_s5[3]\
		   awid_s5[2]\
		   awid_s5[1]\
		   awid_s5[0]\
		   awlen_s5[3]\
		   awlen_s5[2]\
		   awlen_s5[1]\
		   awlen_s5[0]\
		   awsize_s5[2]\
		   awsize_s5[1]\
		   awsize_s5[0]\
		   awburst_s5[1]\
		   awburst_s5[0]\
		   awlock_s5[1]\
		   awlock_s5[0]\
		   awcache_s5[3]\
		   awcache_s5[2]\
		   awcache_s5[1]\
		   awcache_s5[0]\
		   awprot_s5[2]\
		   awprot_s5[1]\
		   awprot_s5[0]\
		   wvalid_s5\
		   wid_s5[3]\
		   wid_s5[2]\
		   wid_s5[1]\
		   wid_s5[0]\
		   wdata_s5[127]\
		   wdata_s5[126]\
		   wdata_s5[125]\
		   wdata_s5[124]\
		   wdata_s5[123]\
		   wdata_s5[122]\
		   wdata_s5[121]\
		   wdata_s5[120]\
		   wdata_s5[119]\
		   wdata_s5[118]\
		   wdata_s5[117]\
		   wdata_s5[116]\
		   wdata_s5[115]\
		   wdata_s5[114]\
		   wdata_s5[113]\
		   wdata_s5[112]\
		   wdata_s5[111]\
		   wdata_s5[110]\
		   wdata_s5[109]\
		   wdata_s5[108]\
		   wdata_s5[107]\
		   wdata_s5[106]\
		   wdata_s5[105]\
		   wdata_s5[104]\
		   wdata_s5[103]\
		   wdata_s5[102]\
		   wdata_s5[101]\
		   wdata_s5[100]\
		   wdata_s5[99]\
		   wdata_s5[98]\
		   wdata_s5[97]\
		   wdata_s5[96]\
		   wdata_s5[95]\
		   wdata_s5[94]\
		   wdata_s5[93]\
		   wdata_s5[92]\
		   wdata_s5[91]\
		   wdata_s5[90]\
		   wdata_s5[89]\
		   wdata_s5[88]\
		   wdata_s5[87]\
		   wdata_s5[86]\
		   wdata_s5[85]\
		   wdata_s5[84]\
		   wdata_s5[83]\
		   wdata_s5[82]\
		   wdata_s5[81]\
		   wdata_s5[80]\
		   wdata_s5[79]\
		   wdata_s5[78]\
		   wdata_s5[77]\
		   wdata_s5[76]\
		   wdata_s5[75]\
		   wdata_s5[74]\
		   wdata_s5[73]\
		   wdata_s5[72]\
		   wdata_s5[71]\
		   wdata_s5[70]\
		   wdata_s5[69]\
		   wdata_s5[68]\
		   wdata_s5[67]\
		   wdata_s5[66]\
		   wdata_s5[65]\
		   wdata_s5[64]\
		   wdata_s5[63]\
		   wdata_s5[62]\
		   wdata_s5[61]\
		   wdata_s5[60]\
		   wdata_s5[59]\
		   wdata_s5[58]\
		   wdata_s5[57]\
		   wdata_s5[56]\
		   wdata_s5[55]\
		   wdata_s5[54]\
		   wdata_s5[53]\
		   wdata_s5[52]\
		   wdata_s5[51]\
		   wdata_s5[50]\
		   wdata_s5[49]\
		   wdata_s5[48]\
		   wdata_s5[47]\
		   wdata_s5[46]\
		   wdata_s5[45]\
		   wdata_s5[44]\
		   wdata_s5[43]\
		   wdata_s5[42]\
		   wdata_s5[41]\
		   wdata_s5[40]\
		   wdata_s5[39]\
		   wdata_s5[38]\
		   wdata_s5[37]\
		   wdata_s5[36]\
		   wdata_s5[35]\
		   wdata_s5[34]\
		   wdata_s5[33]\
		   wdata_s5[32]\
		   wdata_s5[31]\
		   wdata_s5[30]\
		   wdata_s5[29]\
		   wdata_s5[28]\
		   wdata_s5[27]\
		   wdata_s5[26]\
		   wdata_s5[25]\
		   wdata_s5[24]\
		   wdata_s5[23]\
		   wdata_s5[22]\
		   wdata_s5[21]\
		   wdata_s5[20]\
		   wdata_s5[19]\
		   wdata_s5[18]\
		   wdata_s5[17]\
		   wdata_s5[16]\
		   wdata_s5[15]\
		   wdata_s5[14]\
		   wdata_s5[13]\
		   wdata_s5[12]\
		   wdata_s5[11]\
		   wdata_s5[10]\
		   wdata_s5[9]\
		   wdata_s5[8]\
		   wdata_s5[7]\
		   wdata_s5[6]\
		   wdata_s5[5]\
		   wdata_s5[4]\
		   wdata_s5[3]\
		   wdata_s5[2]\
		   wdata_s5[1]\
		   wdata_s5[0]\
		   wstrb_s5[15]\
		   wstrb_s5[14]\
		   wstrb_s5[13]\
		   wstrb_s5[12]\
		   wstrb_s5[11]\
		   wstrb_s5[10]\
		   wstrb_s5[9]\
		   wstrb_s5[8]\
		   wstrb_s5[7]\
		   wstrb_s5[6]\
		   wstrb_s5[5]\
		   wstrb_s5[4]\
		   wstrb_s5[3]\
		   wstrb_s5[2]\
		   wstrb_s5[1]\
		   wstrb_s5[0]\
		   wlast_s5\
		   bready_s5\
		   arvalid_s5\
		   arid_s5[3]\
		   arid_s5[2]\
		   arid_s5[1]\
		   arid_s5[0]\
		   araddr_s5[31]\
		   araddr_s5[30]\
		   araddr_s5[29]\
		   araddr_s5[28]\
		   araddr_s5[27]\
		   araddr_s5[26]\
		   araddr_s5[25]\
		   araddr_s5[24]\
		   araddr_s5[23]\
		   araddr_s5[22]\
		   araddr_s5[21]\
		   araddr_s5[20]\
		   araddr_s5[19]\
		   araddr_s5[18]\
		   araddr_s5[17]\
		   araddr_s5[16]\
		   araddr_s5[15]\
		   araddr_s5[14]\
		   araddr_s5[13]\
		   araddr_s5[12]\
		   araddr_s5[11]\
		   araddr_s5[10]\
		   araddr_s5[9]\
		   araddr_s5[8]\
		   araddr_s5[7]\
		   araddr_s5[6]\
		   araddr_s5[5]\
		   araddr_s5[4]\
		   araddr_s5[3]\
		   araddr_s5[2]\
		   araddr_s5[1]\
		   araddr_s5[0]\
		   arlen_s5[3]\
		   arlen_s5[2]\
		   arlen_s5[1]\
		   arlen_s5[0]\
		   arsize_s5[2]\
		   arsize_s5[1]\
		   arsize_s5[0]\
		   arburst_s5[1]\
		   arburst_s5[0]\
		   arlock_s5[1]\
		   arlock_s5[0]\
		   arcache_s5[3]\
		   arcache_s5[2]\
		   arcache_s5[1]\
		   arcache_s5[0]\
		   arprot_s5[2]\
		   arprot_s5[1]\
		   arprot_s5[0]\
		   rready_s5\
		   awvalid_s6\
		   awaddr_s6[31]\
		   awaddr_s6[30]\
		   awaddr_s6[29]\
		   awaddr_s6[28]\
		   awaddr_s6[27]\
		   awaddr_s6[26]\
		   awaddr_s6[25]\
		   awaddr_s6[24]\
		   awaddr_s6[23]\
		   awaddr_s6[22]\
		   awaddr_s6[21]\
		   awaddr_s6[20]\
		   awaddr_s6[19]\
		   awaddr_s6[18]\
		   awaddr_s6[17]\
		   awaddr_s6[16]\
		   awaddr_s6[15]\
		   awaddr_s6[14]\
		   awaddr_s6[13]\
		   awaddr_s6[12]\
		   awaddr_s6[11]\
		   awaddr_s6[10]\
		   awaddr_s6[9]\
		   awaddr_s6[8]\
		   awaddr_s6[7]\
		   awaddr_s6[6]\
		   awaddr_s6[5]\
		   awaddr_s6[4]\
		   awaddr_s6[3]\
		   awaddr_s6[2]\
		   awaddr_s6[1]\
		   awaddr_s6[0]\
		   awid_s6[3]\
		   awid_s6[2]\
		   awid_s6[1]\
		   awid_s6[0]\
		   awlen_s6[3]\
		   awlen_s6[2]\
		   awlen_s6[1]\
		   awlen_s6[0]\
		   awsize_s6[2]\
		   awsize_s6[1]\
		   awsize_s6[0]\
		   awburst_s6[1]\
		   awburst_s6[0]\
		   awlock_s6[1]\
		   awlock_s6[0]\
		   awcache_s6[3]\
		   awcache_s6[2]\
		   awcache_s6[1]\
		   awcache_s6[0]\
		   awprot_s6[2]\
		   awprot_s6[1]\
		   awprot_s6[0]\
		   wvalid_s6\
		   wid_s6[3]\
		   wid_s6[2]\
		   wid_s6[1]\
		   wid_s6[0]\
		   wdata_s6[127]\
		   wdata_s6[126]\
		   wdata_s6[125]\
		   wdata_s6[124]\
		   wdata_s6[123]\
		   wdata_s6[122]\
		   wdata_s6[121]\
		   wdata_s6[120]\
		   wdata_s6[119]\
		   wdata_s6[118]\
		   wdata_s6[117]\
		   wdata_s6[116]\
		   wdata_s6[115]\
		   wdata_s6[114]\
		   wdata_s6[113]\
		   wdata_s6[112]\
		   wdata_s6[111]\
		   wdata_s6[110]\
		   wdata_s6[109]\
		   wdata_s6[108]\
		   wdata_s6[107]\
		   wdata_s6[106]\
		   wdata_s6[105]\
		   wdata_s6[104]\
		   wdata_s6[103]\
		   wdata_s6[102]\
		   wdata_s6[101]\
		   wdata_s6[100]\
		   wdata_s6[99]\
		   wdata_s6[98]\
		   wdata_s6[97]\
		   wdata_s6[96]\
		   wdata_s6[95]\
		   wdata_s6[94]\
		   wdata_s6[93]\
		   wdata_s6[92]\
		   wdata_s6[91]\
		   wdata_s6[90]\
		   wdata_s6[89]\
		   wdata_s6[88]\
		   wdata_s6[87]\
		   wdata_s6[86]\
		   wdata_s6[85]\
		   wdata_s6[84]\
		   wdata_s6[83]\
		   wdata_s6[82]\
		   wdata_s6[81]\
		   wdata_s6[80]\
		   wdata_s6[79]\
		   wdata_s6[78]\
		   wdata_s6[77]\
		   wdata_s6[76]\
		   wdata_s6[75]\
		   wdata_s6[74]\
		   wdata_s6[73]\
		   wdata_s6[72]\
		   wdata_s6[71]\
		   wdata_s6[70]\
		   wdata_s6[69]\
		   wdata_s6[68]\
		   wdata_s6[67]\
		   wdata_s6[66]\
		   wdata_s6[65]\
		   wdata_s6[64]\
		   wdata_s6[63]\
		   wdata_s6[62]\
		   wdata_s6[61]\
		   wdata_s6[60]\
		   wdata_s6[59]\
		   wdata_s6[58]\
		   wdata_s6[57]\
		   wdata_s6[56]\
		   wdata_s6[55]\
		   wdata_s6[54]\
		   wdata_s6[53]\
		   wdata_s6[52]\
		   wdata_s6[51]\
		   wdata_s6[50]\
		   wdata_s6[49]\
		   wdata_s6[48]\
		   wdata_s6[47]\
		   wdata_s6[46]\
		   wdata_s6[45]\
		   wdata_s6[44]\
		   wdata_s6[43]\
		   wdata_s6[42]\
		   wdata_s6[41]\
		   wdata_s6[40]\
		   wdata_s6[39]\
		   wdata_s6[38]\
		   wdata_s6[37]\
		   wdata_s6[36]\
		   wdata_s6[35]\
		   wdata_s6[34]\
		   wdata_s6[33]\
		   wdata_s6[32]\
		   wdata_s6[31]\
		   wdata_s6[30]\
		   wdata_s6[29]\
		   wdata_s6[28]\
		   wdata_s6[27]\
		   wdata_s6[26]\
		   wdata_s6[25]\
		   wdata_s6[24]\
		   wdata_s6[23]\
		   wdata_s6[22]\
		   wdata_s6[21]\
		   wdata_s6[20]\
		   wdata_s6[19]\
		   wdata_s6[18]\
		   wdata_s6[17]\
		   wdata_s6[16]\
		   wdata_s6[15]\
		   wdata_s6[14]\
		   wdata_s6[13]\
		   wdata_s6[12]\
		   wdata_s6[11]\
		   wdata_s6[10]\
		   wdata_s6[9]\
		   wdata_s6[8]\
		   wdata_s6[7]\
		   wdata_s6[6]\
		   wdata_s6[5]\
		   wdata_s6[4]\
		   wdata_s6[3]\
		   wdata_s6[2]\
		   wdata_s6[1]\
		   wdata_s6[0]\
		   wstrb_s6[15]\
		   wstrb_s6[14]\
		   wstrb_s6[13]\
		   wstrb_s6[12]\
		   wstrb_s6[11]\
		   wstrb_s6[10]\
		   wstrb_s6[9]\
		   wstrb_s6[8]\
		   wstrb_s6[7]\
		   wstrb_s6[6]\
		   wstrb_s6[5]\
		   wstrb_s6[4]\
		   wstrb_s6[3]\
		   wstrb_s6[2]\
		   wstrb_s6[1]\
		   wstrb_s6[0]\
		   wlast_s6\
		   bready_s6\
		   arvalid_s6\
		   arid_s6[3]\
		   arid_s6[2]\
		   arid_s6[1]\
		   arid_s6[0]\
		   araddr_s6[31]\
		   araddr_s6[30]\
		   araddr_s6[29]\
		   araddr_s6[28]\
		   araddr_s6[27]\
		   araddr_s6[26]\
		   araddr_s6[25]\
		   araddr_s6[24]\
		   araddr_s6[23]\
		   araddr_s6[22]\
		   araddr_s6[21]\
		   araddr_s6[20]\
		   araddr_s6[19]\
		   araddr_s6[18]\
		   araddr_s6[17]\
		   araddr_s6[16]\
		   araddr_s6[15]\
		   araddr_s6[14]\
		   araddr_s6[13]\
		   araddr_s6[12]\
		   araddr_s6[11]\
		   araddr_s6[10]\
		   araddr_s6[9]\
		   araddr_s6[8]\
		   araddr_s6[7]\
		   araddr_s6[6]\
		   araddr_s6[5]\
		   araddr_s6[4]\
		   araddr_s6[3]\
		   araddr_s6[2]\
		   araddr_s6[1]\
		   araddr_s6[0]\
		   arlen_s6[3]\
		   arlen_s6[2]\
		   arlen_s6[1]\
		   arlen_s6[0]\
		   arsize_s6[2]\
		   arsize_s6[1]\
		   arsize_s6[0]\
		   arburst_s6[1]\
		   arburst_s6[0]\
		   arlock_s6[1]\
		   arlock_s6[0]\
		   arcache_s6[3]\
		   arcache_s6[2]\
		   arcache_s6[1]\
		   arcache_s6[0]\
		   arprot_s6[2]\
		   arprot_s6[1]\
		   arprot_s6[0]\
		   rready_s6\
		   awvalid_s7\
		   awaddr_s7[31]\
		   awaddr_s7[30]\
		   awaddr_s7[29]\
		   awaddr_s7[28]\
		   awaddr_s7[27]\
		   awaddr_s7[26]\
		   awaddr_s7[25]\
		   awaddr_s7[24]\
		   awaddr_s7[23]\
		   awaddr_s7[22]\
		   awaddr_s7[21]\
		   awaddr_s7[20]\
		   awaddr_s7[19]\
		   awaddr_s7[18]\
		   awaddr_s7[17]\
		   awaddr_s7[16]\
		   awaddr_s7[15]\
		   awaddr_s7[14]\
		   awaddr_s7[13]\
		   awaddr_s7[12]\
		   awaddr_s7[11]\
		   awaddr_s7[10]\
		   awaddr_s7[9]\
		   awaddr_s7[8]\
		   awaddr_s7[7]\
		   awaddr_s7[6]\
		   awaddr_s7[5]\
		   awaddr_s7[4]\
		   awaddr_s7[3]\
		   awaddr_s7[2]\
		   awaddr_s7[1]\
		   awaddr_s7[0]\
		   awid_s7[3]\
		   awid_s7[2]\
		   awid_s7[1]\
		   awid_s7[0]\
		   awlen_s7[3]\
		   awlen_s7[2]\
		   awlen_s7[1]\
		   awlen_s7[0]\
		   awsize_s7[2]\
		   awsize_s7[1]\
		   awsize_s7[0]\
		   awburst_s7[1]\
		   awburst_s7[0]\
		   awlock_s7[1]\
		   awlock_s7[0]\
		   awcache_s7[3]\
		   awcache_s7[2]\
		   awcache_s7[1]\
		   awcache_s7[0]\
		   awprot_s7[2]\
		   awprot_s7[1]\
		   awprot_s7[0]\
		   wvalid_s7\
		   wid_s7[3]\
		   wid_s7[2]\
		   wid_s7[1]\
		   wid_s7[0]\
		   wdata_s7[127]\
		   wdata_s7[126]\
		   wdata_s7[125]\
		   wdata_s7[124]\
		   wdata_s7[123]\
		   wdata_s7[122]\
		   wdata_s7[121]\
		   wdata_s7[120]\
		   wdata_s7[119]\
		   wdata_s7[118]\
		   wdata_s7[117]\
		   wdata_s7[116]\
		   wdata_s7[115]\
		   wdata_s7[114]\
		   wdata_s7[113]\
		   wdata_s7[112]\
		   wdata_s7[111]\
		   wdata_s7[110]\
		   wdata_s7[109]\
		   wdata_s7[108]\
		   wdata_s7[107]\
		   wdata_s7[106]\
		   wdata_s7[105]\
		   wdata_s7[104]\
		   wdata_s7[103]\
		   wdata_s7[102]\
		   wdata_s7[101]\
		   wdata_s7[100]\
		   wdata_s7[99]\
		   wdata_s7[98]\
		   wdata_s7[97]\
		   wdata_s7[96]\
		   wdata_s7[95]\
		   wdata_s7[94]\
		   wdata_s7[93]\
		   wdata_s7[92]\
		   wdata_s7[91]\
		   wdata_s7[90]\
		   wdata_s7[89]\
		   wdata_s7[88]\
		   wdata_s7[87]\
		   wdata_s7[86]\
		   wdata_s7[85]\
		   wdata_s7[84]\
		   wdata_s7[83]\
		   wdata_s7[82]\
		   wdata_s7[81]\
		   wdata_s7[80]\
		   wdata_s7[79]\
		   wdata_s7[78]\
		   wdata_s7[77]\
		   wdata_s7[76]\
		   wdata_s7[75]\
		   wdata_s7[74]\
		   wdata_s7[73]\
		   wdata_s7[72]\
		   wdata_s7[71]\
		   wdata_s7[70]\
		   wdata_s7[69]\
		   wdata_s7[68]\
		   wdata_s7[67]\
		   wdata_s7[66]\
		   wdata_s7[65]\
		   wdata_s7[64]\
		   wdata_s7[63]\
		   wdata_s7[62]\
		   wdata_s7[61]\
		   wdata_s7[60]\
		   wdata_s7[59]\
		   wdata_s7[58]\
		   wdata_s7[57]\
		   wdata_s7[56]\
		   wdata_s7[55]\
		   wdata_s7[54]\
		   wdata_s7[53]\
		   wdata_s7[52]\
		   wdata_s7[51]\
		   wdata_s7[50]\
		   wdata_s7[49]\
		   wdata_s7[48]\
		   wdata_s7[47]\
		   wdata_s7[46]\
		   wdata_s7[45]\
		   wdata_s7[44]\
		   wdata_s7[43]\
		   wdata_s7[42]\
		   wdata_s7[41]\
		   wdata_s7[40]\
		   wdata_s7[39]\
		   wdata_s7[38]\
		   wdata_s7[37]\
		   wdata_s7[36]\
		   wdata_s7[35]\
		   wdata_s7[34]\
		   wdata_s7[33]\
		   wdata_s7[32]\
		   wdata_s7[31]\
		   wdata_s7[30]\
		   wdata_s7[29]\
		   wdata_s7[28]\
		   wdata_s7[27]\
		   wdata_s7[26]\
		   wdata_s7[25]\
		   wdata_s7[24]\
		   wdata_s7[23]\
		   wdata_s7[22]\
		   wdata_s7[21]\
		   wdata_s7[20]\
		   wdata_s7[19]\
		   wdata_s7[18]\
		   wdata_s7[17]\
		   wdata_s7[16]\
		   wdata_s7[15]\
		   wdata_s7[14]\
		   wdata_s7[13]\
		   wdata_s7[12]\
		   wdata_s7[11]\
		   wdata_s7[10]\
		   wdata_s7[9]\
		   wdata_s7[8]\
		   wdata_s7[7]\
		   wdata_s7[6]\
		   wdata_s7[5]\
		   wdata_s7[4]\
		   wdata_s7[3]\
		   wdata_s7[2]\
		   wdata_s7[1]\
		   wdata_s7[0]\
		   wstrb_s7[15]\
		   wstrb_s7[14]\
		   wstrb_s7[13]\
		   wstrb_s7[12]\
		   wstrb_s7[11]\
		   wstrb_s7[10]\
		   wstrb_s7[9]\
		   wstrb_s7[8]\
		   wstrb_s7[7]\
		   wstrb_s7[6]\
		   wstrb_s7[5]\
		   wstrb_s7[4]\
		   wstrb_s7[3]\
		   wstrb_s7[2]\
		   wstrb_s7[1]\
		   wstrb_s7[0]\
		   wlast_s7\
		   bready_s7\
		   arvalid_s7\
		   arid_s7[3]\
		   arid_s7[2]\
		   arid_s7[1]\
		   arid_s7[0]\
		   araddr_s7[31]\
		   araddr_s7[30]\
		   araddr_s7[29]\
		   araddr_s7[28]\
		   araddr_s7[27]\
		   araddr_s7[26]\
		   araddr_s7[25]\
		   araddr_s7[24]\
		   araddr_s7[23]\
		   araddr_s7[22]\
		   araddr_s7[21]\
		   araddr_s7[20]\
		   araddr_s7[19]\
		   araddr_s7[18]\
		   araddr_s7[17]\
		   araddr_s7[16]\
		   araddr_s7[15]\
		   araddr_s7[14]\
		   araddr_s7[13]\
		   araddr_s7[12]\
		   araddr_s7[11]\
		   araddr_s7[10]\
		   araddr_s7[9]\
		   araddr_s7[8]\
		   araddr_s7[7]\
		   araddr_s7[6]\
		   araddr_s7[5]\
		   araddr_s7[4]\
		   araddr_s7[3]\
		   araddr_s7[2]\
		   araddr_s7[1]\
		   araddr_s7[0]\
		   arlen_s7[3]\
		   arlen_s7[2]\
		   arlen_s7[1]\
		   arlen_s7[0]\
		   arsize_s7[2]\
		   arsize_s7[1]\
		   arsize_s7[0]\
		   arburst_s7[1]\
		   arburst_s7[0]\
		   arlock_s7[1]\
		   arlock_s7[0]\
		   arcache_s7[3]\
		   arcache_s7[2]\
		   arcache_s7[1]\
		   arcache_s7[0]\
		   arprot_s7[2]\
		   arprot_s7[1]\
		   arprot_s7[0]\
		   rready_s7\
		   dbg_awid_s0[3]\
		   dbg_awid_s0[2]\
		   dbg_awid_s0[1]\
		   dbg_awid_s0[0]\
		   dbg_awaddr_s0[31]\
		   dbg_awaddr_s0[30]\
		   dbg_awaddr_s0[29]\
		   dbg_awaddr_s0[28]\
		   dbg_awaddr_s0[27]\
		   dbg_awaddr_s0[26]\
		   dbg_awaddr_s0[25]\
		   dbg_awaddr_s0[24]\
		   dbg_awaddr_s0[23]\
		   dbg_awaddr_s0[22]\
		   dbg_awaddr_s0[21]\
		   dbg_awaddr_s0[20]\
		   dbg_awaddr_s0[19]\
		   dbg_awaddr_s0[18]\
		   dbg_awaddr_s0[17]\
		   dbg_awaddr_s0[16]\
		   dbg_awaddr_s0[15]\
		   dbg_awaddr_s0[14]\
		   dbg_awaddr_s0[13]\
		   dbg_awaddr_s0[12]\
		   dbg_awaddr_s0[11]\
		   dbg_awaddr_s0[10]\
		   dbg_awaddr_s0[9]\
		   dbg_awaddr_s0[8]\
		   dbg_awaddr_s0[7]\
		   dbg_awaddr_s0[6]\
		   dbg_awaddr_s0[5]\
		   dbg_awaddr_s0[4]\
		   dbg_awaddr_s0[3]\
		   dbg_awaddr_s0[2]\
		   dbg_awaddr_s0[1]\
		   dbg_awaddr_s0[0]\
		   dbg_awlen_s0[3]\
		   dbg_awlen_s0[2]\
		   dbg_awlen_s0[1]\
		   dbg_awlen_s0[0]\
		   dbg_awsize_s0[2]\
		   dbg_awsize_s0[1]\
		   dbg_awsize_s0[0]\
		   dbg_awburst_s0[1]\
		   dbg_awburst_s0[0]\
		   dbg_awlock_s0[1]\
		   dbg_awlock_s0[0]\
		   dbg_awcache_s0[3]\
		   dbg_awcache_s0[2]\
		   dbg_awcache_s0[1]\
		   dbg_awcache_s0[0]\
		   dbg_awprot_s0[2]\
		   dbg_awprot_s0[1]\
		   dbg_awprot_s0[0]\
		   dbg_awvalid_s0\
		   dbg_awready_s0\
		   dbg_wid_s0[3]\
		   dbg_wid_s0[2]\
		   dbg_wid_s0[1]\
		   dbg_wid_s0[0]\
		   dbg_wdata_s0[127]\
		   dbg_wdata_s0[126]\
		   dbg_wdata_s0[125]\
		   dbg_wdata_s0[124]\
		   dbg_wdata_s0[123]\
		   dbg_wdata_s0[122]\
		   dbg_wdata_s0[121]\
		   dbg_wdata_s0[120]\
		   dbg_wdata_s0[119]\
		   dbg_wdata_s0[118]\
		   dbg_wdata_s0[117]\
		   dbg_wdata_s0[116]\
		   dbg_wdata_s0[115]\
		   dbg_wdata_s0[114]\
		   dbg_wdata_s0[113]\
		   dbg_wdata_s0[112]\
		   dbg_wdata_s0[111]\
		   dbg_wdata_s0[110]\
		   dbg_wdata_s0[109]\
		   dbg_wdata_s0[108]\
		   dbg_wdata_s0[107]\
		   dbg_wdata_s0[106]\
		   dbg_wdata_s0[105]\
		   dbg_wdata_s0[104]\
		   dbg_wdata_s0[103]\
		   dbg_wdata_s0[102]\
		   dbg_wdata_s0[101]\
		   dbg_wdata_s0[100]\
		   dbg_wdata_s0[99]\
		   dbg_wdata_s0[98]\
		   dbg_wdata_s0[97]\
		   dbg_wdata_s0[96]\
		   dbg_wdata_s0[95]\
		   dbg_wdata_s0[94]\
		   dbg_wdata_s0[93]\
		   dbg_wdata_s0[92]\
		   dbg_wdata_s0[91]\
		   dbg_wdata_s0[90]\
		   dbg_wdata_s0[89]\
		   dbg_wdata_s0[88]\
		   dbg_wdata_s0[87]\
		   dbg_wdata_s0[86]\
		   dbg_wdata_s0[85]\
		   dbg_wdata_s0[84]\
		   dbg_wdata_s0[83]\
		   dbg_wdata_s0[82]\
		   dbg_wdata_s0[81]\
		   dbg_wdata_s0[80]\
		   dbg_wdata_s0[79]\
		   dbg_wdata_s0[78]\
		   dbg_wdata_s0[77]\
		   dbg_wdata_s0[76]\
		   dbg_wdata_s0[75]\
		   dbg_wdata_s0[74]\
		   dbg_wdata_s0[73]\
		   dbg_wdata_s0[72]\
		   dbg_wdata_s0[71]\
		   dbg_wdata_s0[70]\
		   dbg_wdata_s0[69]\
		   dbg_wdata_s0[68]\
		   dbg_wdata_s0[67]\
		   dbg_wdata_s0[66]\
		   dbg_wdata_s0[65]\
		   dbg_wdata_s0[64]\
		   dbg_wdata_s0[63]\
		   dbg_wdata_s0[62]\
		   dbg_wdata_s0[61]\
		   dbg_wdata_s0[60]\
		   dbg_wdata_s0[59]\
		   dbg_wdata_s0[58]\
		   dbg_wdata_s0[57]\
		   dbg_wdata_s0[56]\
		   dbg_wdata_s0[55]\
		   dbg_wdata_s0[54]\
		   dbg_wdata_s0[53]\
		   dbg_wdata_s0[52]\
		   dbg_wdata_s0[51]\
		   dbg_wdata_s0[50]\
		   dbg_wdata_s0[49]\
		   dbg_wdata_s0[48]\
		   dbg_wdata_s0[47]\
		   dbg_wdata_s0[46]\
		   dbg_wdata_s0[45]\
		   dbg_wdata_s0[44]\
		   dbg_wdata_s0[43]\
		   dbg_wdata_s0[42]\
		   dbg_wdata_s0[41]\
		   dbg_wdata_s0[40]\
		   dbg_wdata_s0[39]\
		   dbg_wdata_s0[38]\
		   dbg_wdata_s0[37]\
		   dbg_wdata_s0[36]\
		   dbg_wdata_s0[35]\
		   dbg_wdata_s0[34]\
		   dbg_wdata_s0[33]\
		   dbg_wdata_s0[32]\
		   dbg_wdata_s0[31]\
		   dbg_wdata_s0[30]\
		   dbg_wdata_s0[29]\
		   dbg_wdata_s0[28]\
		   dbg_wdata_s0[27]\
		   dbg_wdata_s0[26]\
		   dbg_wdata_s0[25]\
		   dbg_wdata_s0[24]\
		   dbg_wdata_s0[23]\
		   dbg_wdata_s0[22]\
		   dbg_wdata_s0[21]\
		   dbg_wdata_s0[20]\
		   dbg_wdata_s0[19]\
		   dbg_wdata_s0[18]\
		   dbg_wdata_s0[17]\
		   dbg_wdata_s0[16]\
		   dbg_wdata_s0[15]\
		   dbg_wdata_s0[14]\
		   dbg_wdata_s0[13]\
		   dbg_wdata_s0[12]\
		   dbg_wdata_s0[11]\
		   dbg_wdata_s0[10]\
		   dbg_wdata_s0[9]\
		   dbg_wdata_s0[8]\
		   dbg_wdata_s0[7]\
		   dbg_wdata_s0[6]\
		   dbg_wdata_s0[5]\
		   dbg_wdata_s0[4]\
		   dbg_wdata_s0[3]\
		   dbg_wdata_s0[2]\
		   dbg_wdata_s0[1]\
		   dbg_wdata_s0[0]\
		   dbg_wstrb_s0[15]\
		   dbg_wstrb_s0[14]\
		   dbg_wstrb_s0[13]\
		   dbg_wstrb_s0[12]\
		   dbg_wstrb_s0[11]\
		   dbg_wstrb_s0[10]\
		   dbg_wstrb_s0[9]\
		   dbg_wstrb_s0[8]\
		   dbg_wstrb_s0[7]\
		   dbg_wstrb_s0[6]\
		   dbg_wstrb_s0[5]\
		   dbg_wstrb_s0[4]\
		   dbg_wstrb_s0[3]\
		   dbg_wstrb_s0[2]\
		   dbg_wstrb_s0[1]\
		   dbg_wstrb_s0[0]\
		   dbg_wlast_s0\
		   dbg_wvalid_s0\
		   dbg_wready_s0\
		   dbg_bid_s0[3]\
		   dbg_bid_s0[2]\
		   dbg_bid_s0[1]\
		   dbg_bid_s0[0]\
		   dbg_bresp_s0[1]\
		   dbg_bresp_s0[0]\
		   dbg_bvalid_s0\
		   dbg_bready_s0\
		   dbg_arid_s0[3]\
		   dbg_arid_s0[2]\
		   dbg_arid_s0[1]\
		   dbg_arid_s0[0]\
		   dbg_araddr_s0[31]\
		   dbg_araddr_s0[30]\
		   dbg_araddr_s0[29]\
		   dbg_araddr_s0[28]\
		   dbg_araddr_s0[27]\
		   dbg_araddr_s0[26]\
		   dbg_araddr_s0[25]\
		   dbg_araddr_s0[24]\
		   dbg_araddr_s0[23]\
		   dbg_araddr_s0[22]\
		   dbg_araddr_s0[21]\
		   dbg_araddr_s0[20]\
		   dbg_araddr_s0[19]\
		   dbg_araddr_s0[18]\
		   dbg_araddr_s0[17]\
		   dbg_araddr_s0[16]\
		   dbg_araddr_s0[15]\
		   dbg_araddr_s0[14]\
		   dbg_araddr_s0[13]\
		   dbg_araddr_s0[12]\
		   dbg_araddr_s0[11]\
		   dbg_araddr_s0[10]\
		   dbg_araddr_s0[9]\
		   dbg_araddr_s0[8]\
		   dbg_araddr_s0[7]\
		   dbg_araddr_s0[6]\
		   dbg_araddr_s0[5]\
		   dbg_araddr_s0[4]\
		   dbg_araddr_s0[3]\
		   dbg_araddr_s0[2]\
		   dbg_araddr_s0[1]\
		   dbg_araddr_s0[0]\
		   dbg_arlen_s0[3]\
		   dbg_arlen_s0[2]\
		   dbg_arlen_s0[1]\
		   dbg_arlen_s0[0]\
		   dbg_arsize_s0[2]\
		   dbg_arsize_s0[1]\
		   dbg_arsize_s0[0]\
		   dbg_arburst_s0[1]\
		   dbg_arburst_s0[0]\
		   dbg_arlock_s0[1]\
		   dbg_arlock_s0[0]\
		   dbg_arcache_s0[3]\
		   dbg_arcache_s0[2]\
		   dbg_arcache_s0[1]\
		   dbg_arcache_s0[0]\
		   dbg_arprot_s0[2]\
		   dbg_arprot_s0[1]\
		   dbg_arprot_s0[0]\
		   dbg_arvalid_s0\
		   dbg_arready_s0\
		   dbg_rid_s0[3]\
		   dbg_rid_s0[2]\
		   dbg_rid_s0[1]\
		   dbg_rid_s0[0]\
		   dbg_rdata_s0[127]\
		   dbg_rdata_s0[126]\
		   dbg_rdata_s0[125]\
		   dbg_rdata_s0[124]\
		   dbg_rdata_s0[123]\
		   dbg_rdata_s0[122]\
		   dbg_rdata_s0[121]\
		   dbg_rdata_s0[120]\
		   dbg_rdata_s0[119]\
		   dbg_rdata_s0[118]\
		   dbg_rdata_s0[117]\
		   dbg_rdata_s0[116]\
		   dbg_rdata_s0[115]\
		   dbg_rdata_s0[114]\
		   dbg_rdata_s0[113]\
		   dbg_rdata_s0[112]\
		   dbg_rdata_s0[111]\
		   dbg_rdata_s0[110]\
		   dbg_rdata_s0[109]\
		   dbg_rdata_s0[108]\
		   dbg_rdata_s0[107]\
		   dbg_rdata_s0[106]\
		   dbg_rdata_s0[105]\
		   dbg_rdata_s0[104]\
		   dbg_rdata_s0[103]\
		   dbg_rdata_s0[102]\
		   dbg_rdata_s0[101]\
		   dbg_rdata_s0[100]\
		   dbg_rdata_s0[99]\
		   dbg_rdata_s0[98]\
		   dbg_rdata_s0[97]\
		   dbg_rdata_s0[96]\
		   dbg_rdata_s0[95]\
		   dbg_rdata_s0[94]\
		   dbg_rdata_s0[93]\
		   dbg_rdata_s0[92]\
		   dbg_rdata_s0[91]\
		   dbg_rdata_s0[90]\
		   dbg_rdata_s0[89]\
		   dbg_rdata_s0[88]\
		   dbg_rdata_s0[87]\
		   dbg_rdata_s0[86]\
		   dbg_rdata_s0[85]\
		   dbg_rdata_s0[84]\
		   dbg_rdata_s0[83]\
		   dbg_rdata_s0[82]\
		   dbg_rdata_s0[81]\
		   dbg_rdata_s0[80]\
		   dbg_rdata_s0[79]\
		   dbg_rdata_s0[78]\
		   dbg_rdata_s0[77]\
		   dbg_rdata_s0[76]\
		   dbg_rdata_s0[75]\
		   dbg_rdata_s0[74]\
		   dbg_rdata_s0[73]\
		   dbg_rdata_s0[72]\
		   dbg_rdata_s0[71]\
		   dbg_rdata_s0[70]\
		   dbg_rdata_s0[69]\
		   dbg_rdata_s0[68]\
		   dbg_rdata_s0[67]\
		   dbg_rdata_s0[66]\
		   dbg_rdata_s0[65]\
		   dbg_rdata_s0[64]\
		   dbg_rdata_s0[63]\
		   dbg_rdata_s0[62]\
		   dbg_rdata_s0[61]\
		   dbg_rdata_s0[60]\
		   dbg_rdata_s0[59]\
		   dbg_rdata_s0[58]\
		   dbg_rdata_s0[57]\
		   dbg_rdata_s0[56]\
		   dbg_rdata_s0[55]\
		   dbg_rdata_s0[54]\
		   dbg_rdata_s0[53]\
		   dbg_rdata_s0[52]\
		   dbg_rdata_s0[51]\
		   dbg_rdata_s0[50]\
		   dbg_rdata_s0[49]\
		   dbg_rdata_s0[48]\
		   dbg_rdata_s0[47]\
		   dbg_rdata_s0[46]\
		   dbg_rdata_s0[45]\
		   dbg_rdata_s0[44]\
		   dbg_rdata_s0[43]\
		   dbg_rdata_s0[42]\
		   dbg_rdata_s0[41]\
		   dbg_rdata_s0[40]\
		   dbg_rdata_s0[39]\
		   dbg_rdata_s0[38]\
		   dbg_rdata_s0[37]\
		   dbg_rdata_s0[36]\
		   dbg_rdata_s0[35]\
		   dbg_rdata_s0[34]\
		   dbg_rdata_s0[33]\
		   dbg_rdata_s0[32]\
		   dbg_rdata_s0[31]\
		   dbg_rdata_s0[30]\
		   dbg_rdata_s0[29]\
		   dbg_rdata_s0[28]\
		   dbg_rdata_s0[27]\
		   dbg_rdata_s0[26]\
		   dbg_rdata_s0[25]\
		   dbg_rdata_s0[24]\
		   dbg_rdata_s0[23]\
		   dbg_rdata_s0[22]\
		   dbg_rdata_s0[21]\
		   dbg_rdata_s0[20]\
		   dbg_rdata_s0[19]\
		   dbg_rdata_s0[18]\
		   dbg_rdata_s0[17]\
		   dbg_rdata_s0[16]\
		   dbg_rdata_s0[15]\
		   dbg_rdata_s0[14]\
		   dbg_rdata_s0[13]\
		   dbg_rdata_s0[12]\
		   dbg_rdata_s0[11]\
		   dbg_rdata_s0[10]\
		   dbg_rdata_s0[9]\
		   dbg_rdata_s0[8]\
		   dbg_rdata_s0[7]\
		   dbg_rdata_s0[6]\
		   dbg_rdata_s0[5]\
		   dbg_rdata_s0[4]\
		   dbg_rdata_s0[3]\
		   dbg_rdata_s0[2]\
		   dbg_rdata_s0[1]\
		   dbg_rdata_s0[0]\
		   dbg_rresp_s0[1]\
		   dbg_rresp_s0[0]\
		   dbg_rvalid_s0\
		   dbg_rlast_s0\
		   dbg_rready_s0 }

Path Group REGIN:
	-from    { aresetn\
		   awvalid_m1\
		   awaddr_m1[31]\
		   awaddr_m1[30]\
		   awaddr_m1[29]\
		   awaddr_m1[28]\
		   awaddr_m1[27]\
		   awaddr_m1[26]\
		   awaddr_m1[25]\
		   awaddr_m1[24]\
		   awaddr_m1[23]\
		   awaddr_m1[22]\
		   awaddr_m1[21]\
		   awaddr_m1[20]\
		   awaddr_m1[19]\
		   awaddr_m1[18]\
		   awaddr_m1[17]\
		   awaddr_m1[16]\
		   awaddr_m1[15]\
		   awaddr_m1[14]\
		   awaddr_m1[13]\
		   awaddr_m1[12]\
		   awaddr_m1[11]\
		   awaddr_m1[10]\
		   awaddr_m1[9]\
		   awaddr_m1[8]\
		   awaddr_m1[7]\
		   awaddr_m1[6]\
		   awaddr_m1[5]\
		   awaddr_m1[4]\
		   awaddr_m1[3]\
		   awaddr_m1[2]\
		   awaddr_m1[1]\
		   awaddr_m1[0]\
		   awid_m1[3]\
		   awid_m1[2]\
		   awid_m1[1]\
		   awid_m1[0]\
		   awlen_m1[3]\
		   awlen_m1[2]\
		   awlen_m1[1]\
		   awlen_m1[0]\
		   awsize_m1[2]\
		   awsize_m1[1]\
		   awsize_m1[0]\
		   awburst_m1[1]\
		   awburst_m1[0]\
		   awlock_m1[1]\
		   awlock_m1[0]\
		   awcache_m1[3]\
		   awcache_m1[2]\
		   awcache_m1[1]\
		   awcache_m1[0]\
		   awprot_m1[2]\
		   awprot_m1[1]\
		   awprot_m1[0]\
		   wvalid_m1\
		   wid_m1[3]\
		   wid_m1[2]\
		   wid_m1[1]\
		   wid_m1[0]\
		   wdata_m1[127]\
		   wdata_m1[126]\
		   wdata_m1[125]\
		   wdata_m1[124]\
		   wdata_m1[123]\
		   wdata_m1[122]\
		   wdata_m1[121]\
		   wdata_m1[120]\
		   wdata_m1[119]\
		   wdata_m1[118]\
		   wdata_m1[117]\
		   wdata_m1[116]\
		   wdata_m1[115]\
		   wdata_m1[114]\
		   wdata_m1[113]\
		   wdata_m1[112]\
		   wdata_m1[111]\
		   wdata_m1[110]\
		   wdata_m1[109]\
		   wdata_m1[108]\
		   wdata_m1[107]\
		   wdata_m1[106]\
		   wdata_m1[105]\
		   wdata_m1[104]\
		   wdata_m1[103]\
		   wdata_m1[102]\
		   wdata_m1[101]\
		   wdata_m1[100]\
		   wdata_m1[99]\
		   wdata_m1[98]\
		   wdata_m1[97]\
		   wdata_m1[96]\
		   wdata_m1[95]\
		   wdata_m1[94]\
		   wdata_m1[93]\
		   wdata_m1[92]\
		   wdata_m1[91]\
		   wdata_m1[90]\
		   wdata_m1[89]\
		   wdata_m1[88]\
		   wdata_m1[87]\
		   wdata_m1[86]\
		   wdata_m1[85]\
		   wdata_m1[84]\
		   wdata_m1[83]\
		   wdata_m1[82]\
		   wdata_m1[81]\
		   wdata_m1[80]\
		   wdata_m1[79]\
		   wdata_m1[78]\
		   wdata_m1[77]\
		   wdata_m1[76]\
		   wdata_m1[75]\
		   wdata_m1[74]\
		   wdata_m1[73]\
		   wdata_m1[72]\
		   wdata_m1[71]\
		   wdata_m1[70]\
		   wdata_m1[69]\
		   wdata_m1[68]\
		   wdata_m1[67]\
		   wdata_m1[66]\
		   wdata_m1[65]\
		   wdata_m1[64]\
		   wdata_m1[63]\
		   wdata_m1[62]\
		   wdata_m1[61]\
		   wdata_m1[60]\
		   wdata_m1[59]\
		   wdata_m1[58]\
		   wdata_m1[57]\
		   wdata_m1[56]\
		   wdata_m1[55]\
		   wdata_m1[54]\
		   wdata_m1[53]\
		   wdata_m1[52]\
		   wdata_m1[51]\
		   wdata_m1[50]\
		   wdata_m1[49]\
		   wdata_m1[48]\
		   wdata_m1[47]\
		   wdata_m1[46]\
		   wdata_m1[45]\
		   wdata_m1[44]\
		   wdata_m1[43]\
		   wdata_m1[42]\
		   wdata_m1[41]\
		   wdata_m1[40]\
		   wdata_m1[39]\
		   wdata_m1[38]\
		   wdata_m1[37]\
		   wdata_m1[36]\
		   wdata_m1[35]\
		   wdata_m1[34]\
		   wdata_m1[33]\
		   wdata_m1[32]\
		   wdata_m1[31]\
		   wdata_m1[30]\
		   wdata_m1[29]\
		   wdata_m1[28]\
		   wdata_m1[27]\
		   wdata_m1[26]\
		   wdata_m1[25]\
		   wdata_m1[24]\
		   wdata_m1[23]\
		   wdata_m1[22]\
		   wdata_m1[21]\
		   wdata_m1[20]\
		   wdata_m1[19]\
		   wdata_m1[18]\
		   wdata_m1[17]\
		   wdata_m1[16]\
		   wdata_m1[15]\
		   wdata_m1[14]\
		   wdata_m1[13]\
		   wdata_m1[12]\
		   wdata_m1[11]\
		   wdata_m1[10]\
		   wdata_m1[9]\
		   wdata_m1[8]\
		   wdata_m1[7]\
		   wdata_m1[6]\
		   wdata_m1[5]\
		   wdata_m1[4]\
		   wdata_m1[3]\
		   wdata_m1[2]\
		   wdata_m1[1]\
		   wdata_m1[0]\
		   wstrb_m1[15]\
		   wstrb_m1[14]\
		   wstrb_m1[13]\
		   wstrb_m1[12]\
		   wstrb_m1[11]\
		   wstrb_m1[10]\
		   wstrb_m1[9]\
		   wstrb_m1[8]\
		   wstrb_m1[7]\
		   wstrb_m1[6]\
		   wstrb_m1[5]\
		   wstrb_m1[4]\
		   wstrb_m1[3]\
		   wstrb_m1[2]\
		   wstrb_m1[1]\
		   wstrb_m1[0]\
		   wlast_m1\
		   bready_m1\
		   arvalid_m1\
		   arid_m1[3]\
		   arid_m1[2]\
		   arid_m1[1]\
		   arid_m1[0]\
		   araddr_m1[31]\
		   araddr_m1[30]\
		   araddr_m1[29]\
		   araddr_m1[28]\
		   araddr_m1[27]\
		   araddr_m1[26]\
		   araddr_m1[25]\
		   araddr_m1[24]\
		   araddr_m1[23]\
		   araddr_m1[22]\
		   araddr_m1[21]\
		   araddr_m1[20]\
		   araddr_m1[19]\
		   araddr_m1[18]\
		   araddr_m1[17]\
		   araddr_m1[16]\
		   araddr_m1[15]\
		   araddr_m1[14]\
		   araddr_m1[13]\
		   araddr_m1[12]\
		   araddr_m1[11]\
		   araddr_m1[10]\
		   araddr_m1[9]\
		   araddr_m1[8]\
		   araddr_m1[7]\
		   araddr_m1[6]\
		   araddr_m1[5]\
		   araddr_m1[4]\
		   araddr_m1[3]\
		   araddr_m1[2]\
		   araddr_m1[1]\
		   araddr_m1[0]\
		   arlen_m1[3]\
		   arlen_m1[2]\
		   arlen_m1[1]\
		   arlen_m1[0]\
		   arsize_m1[2]\
		   arsize_m1[1]\
		   arsize_m1[0]\
		   arburst_m1[1]\
		   arburst_m1[0]\
		   arlock_m1[1]\
		   arlock_m1[0]\
		   arcache_m1[3]\
		   arcache_m1[2]\
		   arcache_m1[1]\
		   arcache_m1[0]\
		   arprot_m1[2]\
		   arprot_m1[1]\
		   arprot_m1[0]\
		   rready_m1\
		   awready_s1\
		   wready_s1\
		   bvalid_s1\
		   bid_s1[3]\
		   bid_s1[2]\
		   bid_s1[1]\
		   bid_s1[0]\
		   bresp_s1[1]\
		   bresp_s1[0]\
		   arready_s1\
		   rvalid_s1\
		   rid_s1[3]\
		   rid_s1[2]\
		   rid_s1[1]\
		   rid_s1[0]\
		   rdata_s1[127]\
		   rdata_s1[126]\
		   rdata_s1[125]\
		   rdata_s1[124]\
		   rdata_s1[123]\
		   rdata_s1[122]\
		   rdata_s1[121]\
		   rdata_s1[120]\
		   rdata_s1[119]\
		   rdata_s1[118]\
		   rdata_s1[117]\
		   rdata_s1[116]\
		   rdata_s1[115]\
		   rdata_s1[114]\
		   rdata_s1[113]\
		   rdata_s1[112]\
		   rdata_s1[111]\
		   rdata_s1[110]\
		   rdata_s1[109]\
		   rdata_s1[108]\
		   rdata_s1[107]\
		   rdata_s1[106]\
		   rdata_s1[105]\
		   rdata_s1[104]\
		   rdata_s1[103]\
		   rdata_s1[102]\
		   rdata_s1[101]\
		   rdata_s1[100]\
		   rdata_s1[99]\
		   rdata_s1[98]\
		   rdata_s1[97]\
		   rdata_s1[96]\
		   rdata_s1[95]\
		   rdata_s1[94]\
		   rdata_s1[93]\
		   rdata_s1[92]\
		   rdata_s1[91]\
		   rdata_s1[90]\
		   rdata_s1[89]\
		   rdata_s1[88]\
		   rdata_s1[87]\
		   rdata_s1[86]\
		   rdata_s1[85]\
		   rdata_s1[84]\
		   rdata_s1[83]\
		   rdata_s1[82]\
		   rdata_s1[81]\
		   rdata_s1[80]\
		   rdata_s1[79]\
		   rdata_s1[78]\
		   rdata_s1[77]\
		   rdata_s1[76]\
		   rdata_s1[75]\
		   rdata_s1[74]\
		   rdata_s1[73]\
		   rdata_s1[72]\
		   rdata_s1[71]\
		   rdata_s1[70]\
		   rdata_s1[69]\
		   rdata_s1[68]\
		   rdata_s1[67]\
		   rdata_s1[66]\
		   rdata_s1[65]\
		   rdata_s1[64]\
		   rdata_s1[63]\
		   rdata_s1[62]\
		   rdata_s1[61]\
		   rdata_s1[60]\
		   rdata_s1[59]\
		   rdata_s1[58]\
		   rdata_s1[57]\
		   rdata_s1[56]\
		   rdata_s1[55]\
		   rdata_s1[54]\
		   rdata_s1[53]\
		   rdata_s1[52]\
		   rdata_s1[51]\
		   rdata_s1[50]\
		   rdata_s1[49]\
		   rdata_s1[48]\
		   rdata_s1[47]\
		   rdata_s1[46]\
		   rdata_s1[45]\
		   rdata_s1[44]\
		   rdata_s1[43]\
		   rdata_s1[42]\
		   rdata_s1[41]\
		   rdata_s1[40]\
		   rdata_s1[39]\
		   rdata_s1[38]\
		   rdata_s1[37]\
		   rdata_s1[36]\
		   rdata_s1[35]\
		   rdata_s1[34]\
		   rdata_s1[33]\
		   rdata_s1[32]\
		   rdata_s1[31]\
		   rdata_s1[30]\
		   rdata_s1[29]\
		   rdata_s1[28]\
		   rdata_s1[27]\
		   rdata_s1[26]\
		   rdata_s1[25]\
		   rdata_s1[24]\
		   rdata_s1[23]\
		   rdata_s1[22]\
		   rdata_s1[21]\
		   rdata_s1[20]\
		   rdata_s1[19]\
		   rdata_s1[18]\
		   rdata_s1[17]\
		   rdata_s1[16]\
		   rdata_s1[15]\
		   rdata_s1[14]\
		   rdata_s1[13]\
		   rdata_s1[12]\
		   rdata_s1[11]\
		   rdata_s1[10]\
		   rdata_s1[9]\
		   rdata_s1[8]\
		   rdata_s1[7]\
		   rdata_s1[6]\
		   rdata_s1[5]\
		   rdata_s1[4]\
		   rdata_s1[3]\
		   rdata_s1[2]\
		   rdata_s1[1]\
		   rdata_s1[0]\
		   rresp_s1[1]\
		   rresp_s1[0]\
		   rlast_s1\
		   awready_s2\
		   wready_s2\
		   bvalid_s2\
		   bid_s2[3]\
		   bid_s2[2]\
		   bid_s2[1]\
		   bid_s2[0]\
		   bresp_s2[1]\
		   bresp_s2[0]\
		   arready_s2\
		   rvalid_s2\
		   rid_s2[3]\
		   rid_s2[2]\
		   rid_s2[1]\
		   rid_s2[0]\
		   rdata_s2[127]\
		   rdata_s2[126]\
		   rdata_s2[125]\
		   rdata_s2[124]\
		   rdata_s2[123]\
		   rdata_s2[122]\
		   rdata_s2[121]\
		   rdata_s2[120]\
		   rdata_s2[119]\
		   rdata_s2[118]\
		   rdata_s2[117]\
		   rdata_s2[116]\
		   rdata_s2[115]\
		   rdata_s2[114]\
		   rdata_s2[113]\
		   rdata_s2[112]\
		   rdata_s2[111]\
		   rdata_s2[110]\
		   rdata_s2[109]\
		   rdata_s2[108]\
		   rdata_s2[107]\
		   rdata_s2[106]\
		   rdata_s2[105]\
		   rdata_s2[104]\
		   rdata_s2[103]\
		   rdata_s2[102]\
		   rdata_s2[101]\
		   rdata_s2[100]\
		   rdata_s2[99]\
		   rdata_s2[98]\
		   rdata_s2[97]\
		   rdata_s2[96]\
		   rdata_s2[95]\
		   rdata_s2[94]\
		   rdata_s2[93]\
		   rdata_s2[92]\
		   rdata_s2[91]\
		   rdata_s2[90]\
		   rdata_s2[89]\
		   rdata_s2[88]\
		   rdata_s2[87]\
		   rdata_s2[86]\
		   rdata_s2[85]\
		   rdata_s2[84]\
		   rdata_s2[83]\
		   rdata_s2[82]\
		   rdata_s2[81]\
		   rdata_s2[80]\
		   rdata_s2[79]\
		   rdata_s2[78]\
		   rdata_s2[77]\
		   rdata_s2[76]\
		   rdata_s2[75]\
		   rdata_s2[74]\
		   rdata_s2[73]\
		   rdata_s2[72]\
		   rdata_s2[71]\
		   rdata_s2[70]\
		   rdata_s2[69]\
		   rdata_s2[68]\
		   rdata_s2[67]\
		   rdata_s2[66]\
		   rdata_s2[65]\
		   rdata_s2[64]\
		   rdata_s2[63]\
		   rdata_s2[62]\
		   rdata_s2[61]\
		   rdata_s2[60]\
		   rdata_s2[59]\
		   rdata_s2[58]\
		   rdata_s2[57]\
		   rdata_s2[56]\
		   rdata_s2[55]\
		   rdata_s2[54]\
		   rdata_s2[53]\
		   rdata_s2[52]\
		   rdata_s2[51]\
		   rdata_s2[50]\
		   rdata_s2[49]\
		   rdata_s2[48]\
		   rdata_s2[47]\
		   rdata_s2[46]\
		   rdata_s2[45]\
		   rdata_s2[44]\
		   rdata_s2[43]\
		   rdata_s2[42]\
		   rdata_s2[41]\
		   rdata_s2[40]\
		   rdata_s2[39]\
		   rdata_s2[38]\
		   rdata_s2[37]\
		   rdata_s2[36]\
		   rdata_s2[35]\
		   rdata_s2[34]\
		   rdata_s2[33]\
		   rdata_s2[32]\
		   rdata_s2[31]\
		   rdata_s2[30]\
		   rdata_s2[29]\
		   rdata_s2[28]\
		   rdata_s2[27]\
		   rdata_s2[26]\
		   rdata_s2[25]\
		   rdata_s2[24]\
		   rdata_s2[23]\
		   rdata_s2[22]\
		   rdata_s2[21]\
		   rdata_s2[20]\
		   rdata_s2[19]\
		   rdata_s2[18]\
		   rdata_s2[17]\
		   rdata_s2[16]\
		   rdata_s2[15]\
		   rdata_s2[14]\
		   rdata_s2[13]\
		   rdata_s2[12]\
		   rdata_s2[11]\
		   rdata_s2[10]\
		   rdata_s2[9]\
		   rdata_s2[8]\
		   rdata_s2[7]\
		   rdata_s2[6]\
		   rdata_s2[5]\
		   rdata_s2[4]\
		   rdata_s2[3]\
		   rdata_s2[2]\
		   rdata_s2[1]\
		   rdata_s2[0]\
		   rresp_s2[1]\
		   rresp_s2[0]\
		   rlast_s2\
		   awready_s3\
		   wready_s3\
		   bvalid_s3\
		   bid_s3[3]\
		   bid_s3[2]\
		   bid_s3[1]\
		   bid_s3[0]\
		   bresp_s3[1]\
		   bresp_s3[0]\
		   arready_s3\
		   rvalid_s3\
		   rid_s3[3]\
		   rid_s3[2]\
		   rid_s3[1]\
		   rid_s3[0]\
		   rdata_s3[127]\
		   rdata_s3[126]\
		   rdata_s3[125]\
		   rdata_s3[124]\
		   rdata_s3[123]\
		   rdata_s3[122]\
		   rdata_s3[121]\
		   rdata_s3[120]\
		   rdata_s3[119]\
		   rdata_s3[118]\
		   rdata_s3[117]\
		   rdata_s3[116]\
		   rdata_s3[115]\
		   rdata_s3[114]\
		   rdata_s3[113]\
		   rdata_s3[112]\
		   rdata_s3[111]\
		   rdata_s3[110]\
		   rdata_s3[109]\
		   rdata_s3[108]\
		   rdata_s3[107]\
		   rdata_s3[106]\
		   rdata_s3[105]\
		   rdata_s3[104]\
		   rdata_s3[103]\
		   rdata_s3[102]\
		   rdata_s3[101]\
		   rdata_s3[100]\
		   rdata_s3[99]\
		   rdata_s3[98]\
		   rdata_s3[97]\
		   rdata_s3[96]\
		   rdata_s3[95]\
		   rdata_s3[94]\
		   rdata_s3[93]\
		   rdata_s3[92]\
		   rdata_s3[91]\
		   rdata_s3[90]\
		   rdata_s3[89]\
		   rdata_s3[88]\
		   rdata_s3[87]\
		   rdata_s3[86]\
		   rdata_s3[85]\
		   rdata_s3[84]\
		   rdata_s3[83]\
		   rdata_s3[82]\
		   rdata_s3[81]\
		   rdata_s3[80]\
		   rdata_s3[79]\
		   rdata_s3[78]\
		   rdata_s3[77]\
		   rdata_s3[76]\
		   rdata_s3[75]\
		   rdata_s3[74]\
		   rdata_s3[73]\
		   rdata_s3[72]\
		   rdata_s3[71]\
		   rdata_s3[70]\
		   rdata_s3[69]\
		   rdata_s3[68]\
		   rdata_s3[67]\
		   rdata_s3[66]\
		   rdata_s3[65]\
		   rdata_s3[64]\
		   rdata_s3[63]\
		   rdata_s3[62]\
		   rdata_s3[61]\
		   rdata_s3[60]\
		   rdata_s3[59]\
		   rdata_s3[58]\
		   rdata_s3[57]\
		   rdata_s3[56]\
		   rdata_s3[55]\
		   rdata_s3[54]\
		   rdata_s3[53]\
		   rdata_s3[52]\
		   rdata_s3[51]\
		   rdata_s3[50]\
		   rdata_s3[49]\
		   rdata_s3[48]\
		   rdata_s3[47]\
		   rdata_s3[46]\
		   rdata_s3[45]\
		   rdata_s3[44]\
		   rdata_s3[43]\
		   rdata_s3[42]\
		   rdata_s3[41]\
		   rdata_s3[40]\
		   rdata_s3[39]\
		   rdata_s3[38]\
		   rdata_s3[37]\
		   rdata_s3[36]\
		   rdata_s3[35]\
		   rdata_s3[34]\
		   rdata_s3[33]\
		   rdata_s3[32]\
		   rdata_s3[31]\
		   rdata_s3[30]\
		   rdata_s3[29]\
		   rdata_s3[28]\
		   rdata_s3[27]\
		   rdata_s3[26]\
		   rdata_s3[25]\
		   rdata_s3[24]\
		   rdata_s3[23]\
		   rdata_s3[22]\
		   rdata_s3[21]\
		   rdata_s3[20]\
		   rdata_s3[19]\
		   rdata_s3[18]\
		   rdata_s3[17]\
		   rdata_s3[16]\
		   rdata_s3[15]\
		   rdata_s3[14]\
		   rdata_s3[13]\
		   rdata_s3[12]\
		   rdata_s3[11]\
		   rdata_s3[10]\
		   rdata_s3[9]\
		   rdata_s3[8]\
		   rdata_s3[7]\
		   rdata_s3[6]\
		   rdata_s3[5]\
		   rdata_s3[4]\
		   rdata_s3[3]\
		   rdata_s3[2]\
		   rdata_s3[1]\
		   rdata_s3[0]\
		   rresp_s3[1]\
		   rresp_s3[0]\
		   rlast_s3\
		   awready_s4\
		   wready_s4\
		   bvalid_s4\
		   bid_s4[3]\
		   bid_s4[2]\
		   bid_s4[1]\
		   bid_s4[0]\
		   bresp_s4[1]\
		   bresp_s4[0]\
		   arready_s4\
		   rvalid_s4\
		   rid_s4[3]\
		   rid_s4[2]\
		   rid_s4[1]\
		   rid_s4[0]\
		   rdata_s4[127]\
		   rdata_s4[126]\
		   rdata_s4[125]\
		   rdata_s4[124]\
		   rdata_s4[123]\
		   rdata_s4[122]\
		   rdata_s4[121]\
		   rdata_s4[120]\
		   rdata_s4[119]\
		   rdata_s4[118]\
		   rdata_s4[117]\
		   rdata_s4[116]\
		   rdata_s4[115]\
		   rdata_s4[114]\
		   rdata_s4[113]\
		   rdata_s4[112]\
		   rdata_s4[111]\
		   rdata_s4[110]\
		   rdata_s4[109]\
		   rdata_s4[108]\
		   rdata_s4[107]\
		   rdata_s4[106]\
		   rdata_s4[105]\
		   rdata_s4[104]\
		   rdata_s4[103]\
		   rdata_s4[102]\
		   rdata_s4[101]\
		   rdata_s4[100]\
		   rdata_s4[99]\
		   rdata_s4[98]\
		   rdata_s4[97]\
		   rdata_s4[96]\
		   rdata_s4[95]\
		   rdata_s4[94]\
		   rdata_s4[93]\
		   rdata_s4[92]\
		   rdata_s4[91]\
		   rdata_s4[90]\
		   rdata_s4[89]\
		   rdata_s4[88]\
		   rdata_s4[87]\
		   rdata_s4[86]\
		   rdata_s4[85]\
		   rdata_s4[84]\
		   rdata_s4[83]\
		   rdata_s4[82]\
		   rdata_s4[81]\
		   rdata_s4[80]\
		   rdata_s4[79]\
		   rdata_s4[78]\
		   rdata_s4[77]\
		   rdata_s4[76]\
		   rdata_s4[75]\
		   rdata_s4[74]\
		   rdata_s4[73]\
		   rdata_s4[72]\
		   rdata_s4[71]\
		   rdata_s4[70]\
		   rdata_s4[69]\
		   rdata_s4[68]\
		   rdata_s4[67]\
		   rdata_s4[66]\
		   rdata_s4[65]\
		   rdata_s4[64]\
		   rdata_s4[63]\
		   rdata_s4[62]\
		   rdata_s4[61]\
		   rdata_s4[60]\
		   rdata_s4[59]\
		   rdata_s4[58]\
		   rdata_s4[57]\
		   rdata_s4[56]\
		   rdata_s4[55]\
		   rdata_s4[54]\
		   rdata_s4[53]\
		   rdata_s4[52]\
		   rdata_s4[51]\
		   rdata_s4[50]\
		   rdata_s4[49]\
		   rdata_s4[48]\
		   rdata_s4[47]\
		   rdata_s4[46]\
		   rdata_s4[45]\
		   rdata_s4[44]\
		   rdata_s4[43]\
		   rdata_s4[42]\
		   rdata_s4[41]\
		   rdata_s4[40]\
		   rdata_s4[39]\
		   rdata_s4[38]\
		   rdata_s4[37]\
		   rdata_s4[36]\
		   rdata_s4[35]\
		   rdata_s4[34]\
		   rdata_s4[33]\
		   rdata_s4[32]\
		   rdata_s4[31]\
		   rdata_s4[30]\
		   rdata_s4[29]\
		   rdata_s4[28]\
		   rdata_s4[27]\
		   rdata_s4[26]\
		   rdata_s4[25]\
		   rdata_s4[24]\
		   rdata_s4[23]\
		   rdata_s4[22]\
		   rdata_s4[21]\
		   rdata_s4[20]\
		   rdata_s4[19]\
		   rdata_s4[18]\
		   rdata_s4[17]\
		   rdata_s4[16]\
		   rdata_s4[15]\
		   rdata_s4[14]\
		   rdata_s4[13]\
		   rdata_s4[12]\
		   rdata_s4[11]\
		   rdata_s4[10]\
		   rdata_s4[9]\
		   rdata_s4[8]\
		   rdata_s4[7]\
		   rdata_s4[6]\
		   rdata_s4[5]\
		   rdata_s4[4]\
		   rdata_s4[3]\
		   rdata_s4[2]\
		   rdata_s4[1]\
		   rdata_s4[0]\
		   rresp_s4[1]\
		   rresp_s4[0]\
		   rlast_s4\
		   awready_s5\
		   wready_s5\
		   bvalid_s5\
		   bid_s5[3]\
		   bid_s5[2]\
		   bid_s5[1]\
		   bid_s5[0]\
		   bresp_s5[1]\
		   bresp_s5[0]\
		   arready_s5\
		   rvalid_s5\
		   rid_s5[3]\
		   rid_s5[2]\
		   rid_s5[1]\
		   rid_s5[0]\
		   rdata_s5[127]\
		   rdata_s5[126]\
		   rdata_s5[125]\
		   rdata_s5[124]\
		   rdata_s5[123]\
		   rdata_s5[122]\
		   rdata_s5[121]\
		   rdata_s5[120]\
		   rdata_s5[119]\
		   rdata_s5[118]\
		   rdata_s5[117]\
		   rdata_s5[116]\
		   rdata_s5[115]\
		   rdata_s5[114]\
		   rdata_s5[113]\
		   rdata_s5[112]\
		   rdata_s5[111]\
		   rdata_s5[110]\
		   rdata_s5[109]\
		   rdata_s5[108]\
		   rdata_s5[107]\
		   rdata_s5[106]\
		   rdata_s5[105]\
		   rdata_s5[104]\
		   rdata_s5[103]\
		   rdata_s5[102]\
		   rdata_s5[101]\
		   rdata_s5[100]\
		   rdata_s5[99]\
		   rdata_s5[98]\
		   rdata_s5[97]\
		   rdata_s5[96]\
		   rdata_s5[95]\
		   rdata_s5[94]\
		   rdata_s5[93]\
		   rdata_s5[92]\
		   rdata_s5[91]\
		   rdata_s5[90]\
		   rdata_s5[89]\
		   rdata_s5[88]\
		   rdata_s5[87]\
		   rdata_s5[86]\
		   rdata_s5[85]\
		   rdata_s5[84]\
		   rdata_s5[83]\
		   rdata_s5[82]\
		   rdata_s5[81]\
		   rdata_s5[80]\
		   rdata_s5[79]\
		   rdata_s5[78]\
		   rdata_s5[77]\
		   rdata_s5[76]\
		   rdata_s5[75]\
		   rdata_s5[74]\
		   rdata_s5[73]\
		   rdata_s5[72]\
		   rdata_s5[71]\
		   rdata_s5[70]\
		   rdata_s5[69]\
		   rdata_s5[68]\
		   rdata_s5[67]\
		   rdata_s5[66]\
		   rdata_s5[65]\
		   rdata_s5[64]\
		   rdata_s5[63]\
		   rdata_s5[62]\
		   rdata_s5[61]\
		   rdata_s5[60]\
		   rdata_s5[59]\
		   rdata_s5[58]\
		   rdata_s5[57]\
		   rdata_s5[56]\
		   rdata_s5[55]\
		   rdata_s5[54]\
		   rdata_s5[53]\
		   rdata_s5[52]\
		   rdata_s5[51]\
		   rdata_s5[50]\
		   rdata_s5[49]\
		   rdata_s5[48]\
		   rdata_s5[47]\
		   rdata_s5[46]\
		   rdata_s5[45]\
		   rdata_s5[44]\
		   rdata_s5[43]\
		   rdata_s5[42]\
		   rdata_s5[41]\
		   rdata_s5[40]\
		   rdata_s5[39]\
		   rdata_s5[38]\
		   rdata_s5[37]\
		   rdata_s5[36]\
		   rdata_s5[35]\
		   rdata_s5[34]\
		   rdata_s5[33]\
		   rdata_s5[32]\
		   rdata_s5[31]\
		   rdata_s5[30]\
		   rdata_s5[29]\
		   rdata_s5[28]\
		   rdata_s5[27]\
		   rdata_s5[26]\
		   rdata_s5[25]\
		   rdata_s5[24]\
		   rdata_s5[23]\
		   rdata_s5[22]\
		   rdata_s5[21]\
		   rdata_s5[20]\
		   rdata_s5[19]\
		   rdata_s5[18]\
		   rdata_s5[17]\
		   rdata_s5[16]\
		   rdata_s5[15]\
		   rdata_s5[14]\
		   rdata_s5[13]\
		   rdata_s5[12]\
		   rdata_s5[11]\
		   rdata_s5[10]\
		   rdata_s5[9]\
		   rdata_s5[8]\
		   rdata_s5[7]\
		   rdata_s5[6]\
		   rdata_s5[5]\
		   rdata_s5[4]\
		   rdata_s5[3]\
		   rdata_s5[2]\
		   rdata_s5[1]\
		   rdata_s5[0]\
		   rresp_s5[1]\
		   rresp_s5[0]\
		   rlast_s5\
		   awready_s6\
		   wready_s6\
		   bvalid_s6\
		   bid_s6[3]\
		   bid_s6[2]\
		   bid_s6[1]\
		   bid_s6[0]\
		   bresp_s6[1]\
		   bresp_s6[0]\
		   arready_s6\
		   rvalid_s6\
		   rid_s6[3]\
		   rid_s6[2]\
		   rid_s6[1]\
		   rid_s6[0]\
		   rdata_s6[127]\
		   rdata_s6[126]\
		   rdata_s6[125]\
		   rdata_s6[124]\
		   rdata_s6[123]\
		   rdata_s6[122]\
		   rdata_s6[121]\
		   rdata_s6[120]\
		   rdata_s6[119]\
		   rdata_s6[118]\
		   rdata_s6[117]\
		   rdata_s6[116]\
		   rdata_s6[115]\
		   rdata_s6[114]\
		   rdata_s6[113]\
		   rdata_s6[112]\
		   rdata_s6[111]\
		   rdata_s6[110]\
		   rdata_s6[109]\
		   rdata_s6[108]\
		   rdata_s6[107]\
		   rdata_s6[106]\
		   rdata_s6[105]\
		   rdata_s6[104]\
		   rdata_s6[103]\
		   rdata_s6[102]\
		   rdata_s6[101]\
		   rdata_s6[100]\
		   rdata_s6[99]\
		   rdata_s6[98]\
		   rdata_s6[97]\
		   rdata_s6[96]\
		   rdata_s6[95]\
		   rdata_s6[94]\
		   rdata_s6[93]\
		   rdata_s6[92]\
		   rdata_s6[91]\
		   rdata_s6[90]\
		   rdata_s6[89]\
		   rdata_s6[88]\
		   rdata_s6[87]\
		   rdata_s6[86]\
		   rdata_s6[85]\
		   rdata_s6[84]\
		   rdata_s6[83]\
		   rdata_s6[82]\
		   rdata_s6[81]\
		   rdata_s6[80]\
		   rdata_s6[79]\
		   rdata_s6[78]\
		   rdata_s6[77]\
		   rdata_s6[76]\
		   rdata_s6[75]\
		   rdata_s6[74]\
		   rdata_s6[73]\
		   rdata_s6[72]\
		   rdata_s6[71]\
		   rdata_s6[70]\
		   rdata_s6[69]\
		   rdata_s6[68]\
		   rdata_s6[67]\
		   rdata_s6[66]\
		   rdata_s6[65]\
		   rdata_s6[64]\
		   rdata_s6[63]\
		   rdata_s6[62]\
		   rdata_s6[61]\
		   rdata_s6[60]\
		   rdata_s6[59]\
		   rdata_s6[58]\
		   rdata_s6[57]\
		   rdata_s6[56]\
		   rdata_s6[55]\
		   rdata_s6[54]\
		   rdata_s6[53]\
		   rdata_s6[52]\
		   rdata_s6[51]\
		   rdata_s6[50]\
		   rdata_s6[49]\
		   rdata_s6[48]\
		   rdata_s6[47]\
		   rdata_s6[46]\
		   rdata_s6[45]\
		   rdata_s6[44]\
		   rdata_s6[43]\
		   rdata_s6[42]\
		   rdata_s6[41]\
		   rdata_s6[40]\
		   rdata_s6[39]\
		   rdata_s6[38]\
		   rdata_s6[37]\
		   rdata_s6[36]\
		   rdata_s6[35]\
		   rdata_s6[34]\
		   rdata_s6[33]\
		   rdata_s6[32]\
		   rdata_s6[31]\
		   rdata_s6[30]\
		   rdata_s6[29]\
		   rdata_s6[28]\
		   rdata_s6[27]\
		   rdata_s6[26]\
		   rdata_s6[25]\
		   rdata_s6[24]\
		   rdata_s6[23]\
		   rdata_s6[22]\
		   rdata_s6[21]\
		   rdata_s6[20]\
		   rdata_s6[19]\
		   rdata_s6[18]\
		   rdata_s6[17]\
		   rdata_s6[16]\
		   rdata_s6[15]\
		   rdata_s6[14]\
		   rdata_s6[13]\
		   rdata_s6[12]\
		   rdata_s6[11]\
		   rdata_s6[10]\
		   rdata_s6[9]\
		   rdata_s6[8]\
		   rdata_s6[7]\
		   rdata_s6[6]\
		   rdata_s6[5]\
		   rdata_s6[4]\
		   rdata_s6[3]\
		   rdata_s6[2]\
		   rdata_s6[1]\
		   rdata_s6[0]\
		   rresp_s6[1]\
		   rresp_s6[0]\
		   rlast_s6\
		   awready_s7\
		   wready_s7\
		   bvalid_s7\
		   bid_s7[3]\
		   bid_s7[2]\
		   bid_s7[1]\
		   bid_s7[0]\
		   bresp_s7[1]\
		   bresp_s7[0]\
		   arready_s7\
		   rvalid_s7\
		   rid_s7[3]\
		   rid_s7[2]\
		   rid_s7[1]\
		   rid_s7[0]\
		   rdata_s7[127]\
		   rdata_s7[126]\
		   rdata_s7[125]\
		   rdata_s7[124]\
		   rdata_s7[123]\
		   rdata_s7[122]\
		   rdata_s7[121]\
		   rdata_s7[120]\
		   rdata_s7[119]\
		   rdata_s7[118]\
		   rdata_s7[117]\
		   rdata_s7[116]\
		   rdata_s7[115]\
		   rdata_s7[114]\
		   rdata_s7[113]\
		   rdata_s7[112]\
		   rdata_s7[111]\
		   rdata_s7[110]\
		   rdata_s7[109]\
		   rdata_s7[108]\
		   rdata_s7[107]\
		   rdata_s7[106]\
		   rdata_s7[105]\
		   rdata_s7[104]\
		   rdata_s7[103]\
		   rdata_s7[102]\
		   rdata_s7[101]\
		   rdata_s7[100]\
		   rdata_s7[99]\
		   rdata_s7[98]\
		   rdata_s7[97]\
		   rdata_s7[96]\
		   rdata_s7[95]\
		   rdata_s7[94]\
		   rdata_s7[93]\
		   rdata_s7[92]\
		   rdata_s7[91]\
		   rdata_s7[90]\
		   rdata_s7[89]\
		   rdata_s7[88]\
		   rdata_s7[87]\
		   rdata_s7[86]\
		   rdata_s7[85]\
		   rdata_s7[84]\
		   rdata_s7[83]\
		   rdata_s7[82]\
		   rdata_s7[81]\
		   rdata_s7[80]\
		   rdata_s7[79]\
		   rdata_s7[78]\
		   rdata_s7[77]\
		   rdata_s7[76]\
		   rdata_s7[75]\
		   rdata_s7[74]\
		   rdata_s7[73]\
		   rdata_s7[72]\
		   rdata_s7[71]\
		   rdata_s7[70]\
		   rdata_s7[69]\
		   rdata_s7[68]\
		   rdata_s7[67]\
		   rdata_s7[66]\
		   rdata_s7[65]\
		   rdata_s7[64]\
		   rdata_s7[63]\
		   rdata_s7[62]\
		   rdata_s7[61]\
		   rdata_s7[60]\
		   rdata_s7[59]\
		   rdata_s7[58]\
		   rdata_s7[57]\
		   rdata_s7[56]\
		   rdata_s7[55]\
		   rdata_s7[54]\
		   rdata_s7[53]\
		   rdata_s7[52]\
		   rdata_s7[51]\
		   rdata_s7[50]\
		   rdata_s7[49]\
		   rdata_s7[48]\
		   rdata_s7[47]\
		   rdata_s7[46]\
		   rdata_s7[45]\
		   rdata_s7[44]\
		   rdata_s7[43]\
		   rdata_s7[42]\
		   rdata_s7[41]\
		   rdata_s7[40]\
		   rdata_s7[39]\
		   rdata_s7[38]\
		   rdata_s7[37]\
		   rdata_s7[36]\
		   rdata_s7[35]\
		   rdata_s7[34]\
		   rdata_s7[33]\
		   rdata_s7[32]\
		   rdata_s7[31]\
		   rdata_s7[30]\
		   rdata_s7[29]\
		   rdata_s7[28]\
		   rdata_s7[27]\
		   rdata_s7[26]\
		   rdata_s7[25]\
		   rdata_s7[24]\
		   rdata_s7[23]\
		   rdata_s7[22]\
		   rdata_s7[21]\
		   rdata_s7[20]\
		   rdata_s7[19]\
		   rdata_s7[18]\
		   rdata_s7[17]\
		   rdata_s7[16]\
		   rdata_s7[15]\
		   rdata_s7[14]\
		   rdata_s7[13]\
		   rdata_s7[12]\
		   rdata_s7[11]\
		   rdata_s7[10]\
		   rdata_s7[9]\
		   rdata_s7[8]\
		   rdata_s7[7]\
		   rdata_s7[6]\
		   rdata_s7[5]\
		   rdata_s7[4]\
		   rdata_s7[3]\
		   rdata_s7[2]\
		   rdata_s7[1]\
		   rdata_s7[0]\
		   rresp_s7[1]\
		   rresp_s7[0]\
		   rlast_s7\
		   remap_n }

Path Group REGOUT:
	-to      { awready_m1\
		   wready_m1\
		   bvalid_m1\
		   bid_m1[3]\
		   bid_m1[2]\
		   bid_m1[1]\
		   bid_m1[0]\
		   bresp_m1[1]\
		   bresp_m1[0]\
		   arready_m1\
		   rvalid_m1\
		   rid_m1[3]\
		   rid_m1[2]\
		   rid_m1[1]\
		   rid_m1[0]\
		   rdata_m1[127]\
		   rdata_m1[126]\
		   rdata_m1[125]\
		   rdata_m1[124]\
		   rdata_m1[123]\
		   rdata_m1[122]\
		   rdata_m1[121]\
		   rdata_m1[120]\
		   rdata_m1[119]\
		   rdata_m1[118]\
		   rdata_m1[117]\
		   rdata_m1[116]\
		   rdata_m1[115]\
		   rdata_m1[114]\
		   rdata_m1[113]\
		   rdata_m1[112]\
		   rdata_m1[111]\
		   rdata_m1[110]\
		   rdata_m1[109]\
		   rdata_m1[108]\
		   rdata_m1[107]\
		   rdata_m1[106]\
		   rdata_m1[105]\
		   rdata_m1[104]\
		   rdata_m1[103]\
		   rdata_m1[102]\
		   rdata_m1[101]\
		   rdata_m1[100]\
		   rdata_m1[99]\
		   rdata_m1[98]\
		   rdata_m1[97]\
		   rdata_m1[96]\
		   rdata_m1[95]\
		   rdata_m1[94]\
		   rdata_m1[93]\
		   rdata_m1[92]\
		   rdata_m1[91]\
		   rdata_m1[90]\
		   rdata_m1[89]\
		   rdata_m1[88]\
		   rdata_m1[87]\
		   rdata_m1[86]\
		   rdata_m1[85]\
		   rdata_m1[84]\
		   rdata_m1[83]\
		   rdata_m1[82]\
		   rdata_m1[81]\
		   rdata_m1[80]\
		   rdata_m1[79]\
		   rdata_m1[78]\
		   rdata_m1[77]\
		   rdata_m1[76]\
		   rdata_m1[75]\
		   rdata_m1[74]\
		   rdata_m1[73]\
		   rdata_m1[72]\
		   rdata_m1[71]\
		   rdata_m1[70]\
		   rdata_m1[69]\
		   rdata_m1[68]\
		   rdata_m1[67]\
		   rdata_m1[66]\
		   rdata_m1[65]\
		   rdata_m1[64]\
		   rdata_m1[63]\
		   rdata_m1[62]\
		   rdata_m1[61]\
		   rdata_m1[60]\
		   rdata_m1[59]\
		   rdata_m1[58]\
		   rdata_m1[57]\
		   rdata_m1[56]\
		   rdata_m1[55]\
		   rdata_m1[54]\
		   rdata_m1[53]\
		   rdata_m1[52]\
		   rdata_m1[51]\
		   rdata_m1[50]\
		   rdata_m1[49]\
		   rdata_m1[48]\
		   rdata_m1[47]\
		   rdata_m1[46]\
		   rdata_m1[45]\
		   rdata_m1[44]\
		   rdata_m1[43]\
		   rdata_m1[42]\
		   rdata_m1[41]\
		   rdata_m1[40]\
		   rdata_m1[39]\
		   rdata_m1[38]\
		   rdata_m1[37]\
		   rdata_m1[36]\
		   rdata_m1[35]\
		   rdata_m1[34]\
		   rdata_m1[33]\
		   rdata_m1[32]\
		   rdata_m1[31]\
		   rdata_m1[30]\
		   rdata_m1[29]\
		   rdata_m1[28]\
		   rdata_m1[27]\
		   rdata_m1[26]\
		   rdata_m1[25]\
		   rdata_m1[24]\
		   rdata_m1[23]\
		   rdata_m1[22]\
		   rdata_m1[21]\
		   rdata_m1[20]\
		   rdata_m1[19]\
		   rdata_m1[18]\
		   rdata_m1[17]\
		   rdata_m1[16]\
		   rdata_m1[15]\
		   rdata_m1[14]\
		   rdata_m1[13]\
		   rdata_m1[12]\
		   rdata_m1[11]\
		   rdata_m1[10]\
		   rdata_m1[9]\
		   rdata_m1[8]\
		   rdata_m1[7]\
		   rdata_m1[6]\
		   rdata_m1[5]\
		   rdata_m1[4]\
		   rdata_m1[3]\
		   rdata_m1[2]\
		   rdata_m1[1]\
		   rdata_m1[0]\
		   rresp_m1[1]\
		   rresp_m1[0]\
		   rlast_m1\
		   awvalid_s1\
		   awaddr_s1[31]\
		   awaddr_s1[30]\
		   awaddr_s1[29]\
		   awaddr_s1[28]\
		   awaddr_s1[27]\
		   awaddr_s1[26]\
		   awaddr_s1[25]\
		   awaddr_s1[24]\
		   awaddr_s1[23]\
		   awaddr_s1[22]\
		   awaddr_s1[21]\
		   awaddr_s1[20]\
		   awaddr_s1[19]\
		   awaddr_s1[18]\
		   awaddr_s1[17]\
		   awaddr_s1[16]\
		   awaddr_s1[15]\
		   awaddr_s1[14]\
		   awaddr_s1[13]\
		   awaddr_s1[12]\
		   awaddr_s1[11]\
		   awaddr_s1[10]\
		   awaddr_s1[9]\
		   awaddr_s1[8]\
		   awaddr_s1[7]\
		   awaddr_s1[6]\
		   awaddr_s1[5]\
		   awaddr_s1[4]\
		   awaddr_s1[3]\
		   awaddr_s1[2]\
		   awaddr_s1[1]\
		   awaddr_s1[0]\
		   awid_s1[3]\
		   awid_s1[2]\
		   awid_s1[1]\
		   awid_s1[0]\
		   awlen_s1[3]\
		   awlen_s1[2]\
		   awlen_s1[1]\
		   awlen_s1[0]\
		   awsize_s1[2]\
		   awsize_s1[1]\
		   awsize_s1[0]\
		   awburst_s1[1]\
		   awburst_s1[0]\
		   awlock_s1[1]\
		   awlock_s1[0]\
		   awcache_s1[3]\
		   awcache_s1[2]\
		   awcache_s1[1]\
		   awcache_s1[0]\
		   awprot_s1[2]\
		   awprot_s1[1]\
		   awprot_s1[0]\
		   wvalid_s1\
