Information: Creating new attribute 'rtIsRegisteredInput' on port 'aclk'. (UID-96)
Information: Creating new attribute 'rtIsRegisteredOutput' on port 'awready_m1'. (UID-96)
****************************
Report : check_unregistered_io
Design : DW_axi
Version: K-2015.06
****************************

aresetn is not registered at input
awvalid_m1 is not registered at input
awaddr_m1[31] is not registered at input
awaddr_m1[30] is not registered at input
awaddr_m1[29] is not registered at input
awaddr_m1[28] is not registered at input
awaddr_m1[27] is not registered at input
awaddr_m1[26] is not registered at input
awaddr_m1[25] is not registered at input
awaddr_m1[24] is not registered at input
awaddr_m1[23] is not registered at input
awaddr_m1[22] is not registered at input
awaddr_m1[21] is not registered at input
awaddr_m1[20] is not registered at input
awaddr_m1[19] is not registered at input
awaddr_m1[18] is not registered at input
awaddr_m1[17] is not registered at input
awaddr_m1[16] is not registered at input
awaddr_m1[15] is not registered at input
awaddr_m1[14] is not registered at input
awaddr_m1[13] is not registered at input
awaddr_m1[12] is not registered at input
awaddr_m1[11] is not registered at input
awaddr_m1[10] is not registered at input
awaddr_m1[9] is not registered at input
awaddr_m1[8] is not registered at input
awaddr_m1[7] is not registered at input
awaddr_m1[6] is not registered at input
awaddr_m1[5] is not registered at input
awaddr_m1[4] is not registered at input
awaddr_m1[3] is not registered at input
awaddr_m1[2] is not registered at input
awaddr_m1[1] is not registered at input
awaddr_m1[0] is not registered at input
awid_m1[3] is not registered at input
awid_m1[2] is not registered at input
awid_m1[1] is not registered at input
awid_m1[0] is not registered at input
wvalid_m1 is not registered at input
wid_m1[3] is not registered at input
wid_m1[2] is not registered at input
wid_m1[1] is not registered at input
wid_m1[0] is not registered at input
wlast_m1 is not registered at input
bready_m1 is not registered at input
arvalid_m1 is not registered at input
arid_m1[3] is not registered at input
arid_m1[2] is not registered at input
arid_m1[1] is not registered at input
arid_m1[0] is not registered at input
araddr_m1[31] is not registered at input
araddr_m1[30] is not registered at input
araddr_m1[29] is not registered at input
araddr_m1[28] is not registered at input
araddr_m1[27] is not registered at input
araddr_m1[26] is not registered at input
araddr_m1[25] is not registered at input
araddr_m1[24] is not registered at input
araddr_m1[23] is not registered at input
araddr_m1[22] is not registered at input
araddr_m1[21] is not registered at input
araddr_m1[20] is not registered at input
araddr_m1[19] is not registered at input
araddr_m1[18] is not registered at input
araddr_m1[17] is not registered at input
araddr_m1[16] is not registered at input
araddr_m1[15] is not registered at input
araddr_m1[14] is not registered at input
araddr_m1[13] is not registered at input
araddr_m1[12] is not registered at input
araddr_m1[11] is not registered at input
araddr_m1[10] is not registered at input
araddr_m1[9] is not registered at input
araddr_m1[8] is not registered at input
araddr_m1[7] is not registered at input
araddr_m1[6] is not registered at input
araddr_m1[5] is not registered at input
araddr_m1[4] is not registered at input
araddr_m1[3] is not registered at input
araddr_m1[2] is not registered at input
araddr_m1[1] is not registered at input
araddr_m1[0] is not registered at input
rready_m1 is not registered at input
awready_s1 is not registered at input
wready_s1 is not registered at input
bvalid_s1 is not registered at input
arready_s1 is not registered at input
rvalid_s1 is not registered at input
rlast_s1 is not registered at input
awready_s2 is not registered at input
wready_s2 is not registered at input
bvalid_s2 is not registered at input
arready_s2 is not registered at input
rvalid_s2 is not registered at input
rlast_s2 is not registered at input
awready_s3 is not registered at input
wready_s3 is not registered at input
bvalid_s3 is not registered at input
arready_s3 is not registered at input
rvalid_s3 is not registered at input
rlast_s3 is not registered at input
awready_s4 is not registered at input
wready_s4 is not registered at input
bvalid_s4 is not registered at input
arready_s4 is not registered at input
rvalid_s4 is not registered at input
rlast_s4 is not registered at input
awready_s5 is not registered at input
wready_s5 is not registered at input
bvalid_s5 is not registered at input
arready_s5 is not registered at input
rvalid_s5 is not registered at input
rlast_s5 is not registered at input
awready_s6 is not registered at input
wready_s6 is not registered at input
bvalid_s6 is not registered at input
arready_s6 is not registered at input
rvalid_s6 is not registered at input
rlast_s6 is not registered at input
awready_s7 is not registered at input
wready_s7 is not registered at input
bvalid_s7 is not registered at input
arready_s7 is not registered at input
rvalid_s7 is not registered at input
rlast_s7 is not registered at input
remap_n is not registered at input
awready_m1 is not registered at output
wready_m1 is not registered at output
bvalid_m1 is not registered at output
bid_m1[3] is not registered at output
bid_m1[2] is not registered at output
bid_m1[1] is not registered at output
bid_m1[0] is not registered at output
bresp_m1[1] is not registered at output
bresp_m1[0] is not registered at output
arready_m1 is not registered at output
rvalid_m1 is not registered at output
rid_m1[3] is not registered at output
rid_m1[2] is not registered at output
rid_m1[1] is not registered at output
rid_m1[0] is not registered at output
rdata_m1[127] is not registered at output
rdata_m1[126] is not registered at output
rdata_m1[125] is not registered at output
rdata_m1[124] is not registered at output
rdata_m1[123] is not registered at output
rdata_m1[122] is not registered at output
rdata_m1[121] is not registered at output
rdata_m1[120] is not registered at output
rdata_m1[119] is not registered at output
rdata_m1[118] is not registered at output
rdata_m1[117] is not registered at output
rdata_m1[116] is not registered at output
rdata_m1[115] is not registered at output
rdata_m1[114] is not registered at output
rdata_m1[113] is not registered at output
rdata_m1[112] is not registered at output
rdata_m1[111] is not registered at output
rdata_m1[110] is not registered at output
rdata_m1[109] is not registered at output
rdata_m1[108] is not registered at output
rdata_m1[107] is not registered at output
rdata_m1[106] is not registered at output
rdata_m1[105] is not registered at output
rdata_m1[104] is not registered at output
rdata_m1[103] is not registered at output
rdata_m1[102] is not registered at output
rdata_m1[101] is not registered at output
rdata_m1[100] is not registered at output
rdata_m1[99] is not registered at output
rdata_m1[98] is not registered at output
rdata_m1[97] is not registered at output
rdata_m1[96] is not registered at output
rdata_m1[95] is not registered at output
rdata_m1[94] is not registered at output
rdata_m1[93] is not registered at output
rdata_m1[92] is not registered at output
rdata_m1[91] is not registered at output
rdata_m1[90] is not registered at output
rdata_m1[89] is not registered at output
rdata_m1[88] is not registered at output
rdata_m1[87] is not registered at output
rdata_m1[86] is not registered at output
rdata_m1[85] is not registered at output
rdata_m1[84] is not registered at output
rdata_m1[83] is not registered at output
rdata_m1[82] is not registered at output
rdata_m1[81] is not registered at output
rdata_m1[80] is not registered at output
rdata_m1[79] is not registered at output
rdata_m1[78] is not registered at output
rdata_m1[77] is not registered at output
rdata_m1[76] is not registered at output
rdata_m1[75] is not registered at output
rdata_m1[74] is not registered at output
rdata_m1[73] is not registered at output
rdata_m1[72] is not registered at output
rdata_m1[71] is not registered at output
rdata_m1[70] is not registered at output
rdata_m1[69] is not registered at output
rdata_m1[68] is not registered at output
rdata_m1[67] is not registered at output
rdata_m1[66] is not registered at output
rdata_m1[65] is not registered at output
rdata_m1[64] is not registered at output
rdata_m1[63] is not registered at output
rdata_m1[62] is not registered at output
rdata_m1[61] is not registered at output
rdata_m1[60] is not registered at output
rdata_m1[59] is not registered at output
rdata_m1[58] is not registered at output
rdata_m1[57] is not registered at output
rdata_m1[56] is not registered at output
rdata_m1[55] is not registered at output
rdata_m1[54] is not registered at output
rdata_m1[53] is not registered at output
rdata_m1[52] is not registered at output
rdata_m1[51] is not registered at output
rdata_m1[50] is not registered at output
rdata_m1[49] is not registered at output
rdata_m1[48] is not registered at output
rdata_m1[47] is not registered at output
rdata_m1[46] is not registered at output
rdata_m1[45] is not registered at output
rdata_m1[44] is not registered at output
rdata_m1[43] is not registered at output
rdata_m1[42] is not registered at output
rdata_m1[41] is not registered at output
rdata_m1[40] is not registered at output
rdata_m1[39] is not registered at output
rdata_m1[38] is not registered at output
rdata_m1[37] is not registered at output
rdata_m1[36] is not registered at output
rdata_m1[35] is not registered at output
rdata_m1[34] is not registered at output
rdata_m1[33] is not registered at output
rdata_m1[32] is not registered at output
rdata_m1[31] is not registered at output
rdata_m1[30] is not registered at output
rdata_m1[29] is not registered at output
rdata_m1[28] is not registered at output
rdata_m1[27] is not registered at output
rdata_m1[26] is not registered at output
rdata_m1[25] is not registered at output
rdata_m1[24] is not registered at output
rdata_m1[23] is not registered at output
rdata_m1[22] is not registered at output
rdata_m1[21] is not registered at output
rdata_m1[20] is not registered at output
rdata_m1[19] is not registered at output
rdata_m1[18] is not registered at output
rdata_m1[17] is not registered at output
rdata_m1[16] is not registered at output
rdata_m1[15] is not registered at output
rdata_m1[14] is not registered at output
rdata_m1[13] is not registered at output
rdata_m1[12] is not registered at output
rdata_m1[11] is not registered at output
rdata_m1[10] is not registered at output
rdata_m1[9] is not registered at output
rdata_m1[8] is not registered at output
rdata_m1[7] is not registered at output
rdata_m1[6] is not registered at output
rdata_m1[5] is not registered at output
rdata_m1[4] is not registered at output
rdata_m1[3] is not registered at output
rdata_m1[2] is not registered at output
rdata_m1[1] is not registered at output
rdata_m1[0] is not registered at output
rresp_m1[1] is not registered at output
rresp_m1[0] is not registered at output
rlast_m1 is not registered at output
awvalid_s1 is not registered at output
awaddr_s1[31] is not registered at output
awaddr_s1[30] is not registered at output
awaddr_s1[29] is not registered at output
awaddr_s1[28] is not registered at output
awaddr_s1[27] is not registered at output
awaddr_s1[26] is not registered at output
awaddr_s1[25] is not registered at output
awaddr_s1[24] is not registered at output
awaddr_s1[23] is not registered at output
awaddr_s1[22] is not registered at output
awaddr_s1[21] is not registered at output
awaddr_s1[20] is not registered at output
awaddr_s1[19] is not registered at output
awaddr_s1[18] is not registered at output
awaddr_s1[17] is not registered at output
awaddr_s1[16] is not registered at output
awaddr_s1[15] is not registered at output
awaddr_s1[14] is not registered at output
awaddr_s1[13] is not registered at output
awaddr_s1[12] is not registered at output
awaddr_s1[11] is not registered at output
awaddr_s1[10] is not registered at output
awaddr_s1[9] is not registered at output
awaddr_s1[8] is not registered at output
awaddr_s1[7] is not registered at output
awaddr_s1[6] is not registered at output
awaddr_s1[5] is not registered at output
awaddr_s1[4] is not registered at output
awaddr_s1[3] is not registered at output
awaddr_s1[2] is not registered at output
awaddr_s1[1] is not registered at output
awaddr_s1[0] is not registered at output
awid_s1[3] is not registered at output
awid_s1[2] is not registered at output
awid_s1[1] is not registered at output
awid_s1[0] is not registered at output
awlen_s1[3] is not registered at output
awlen_s1[2] is not registered at output
awlen_s1[1] is not registered at output
awlen_s1[0] is not registered at output
awsize_s1[2] is not registered at output
awsize_s1[1] is not registered at output
awsize_s1[0] is not registered at output
awburst_s1[1] is not registered at output
awburst_s1[0] is not registered at output
awlock_s1[1] is not registered at output
awlock_s1[0] is not registered at output
awcache_s1[3] is not registered at output
awcache_s1[2] is not registered at output
awcache_s1[1] is not registered at output
awcache_s1[0] is not registered at output
awprot_s1[2] is not registered at output
awprot_s1[1] is not registered at output
awprot_s1[0] is not registered at output
wvalid_s1 is not registered at output
wid_s1[3] is not registered at output
wid_s1[2] is not registered at output
wid_s1[1] is not registered at output
wid_s1[0] is not registered at output
wdata_s1[127] is not registered at output
wdata_s1[126] is not registered at output
wdata_s1[125] is not registered at output
wdata_s1[124] is not registered at output
wdata_s1[123] is not registered at output
wdata_s1[122] is not registered at output
wdata_s1[121] is not registered at output
wdata_s1[120] is not registered at output
wdata_s1[119] is not registered at output
wdata_s1[118] is not registered at output
wdata_s1[117] is not registered at output
wdata_s1[116] is not registered at output
wdata_s1[115] is not registered at output
wdata_s1[114] is not registered at output
wdata_s1[113] is not registered at output
wdata_s1[112] is not registered at output
wdata_s1[111] is not registered at output
wdata_s1[110] is not registered at output
wdata_s1[109] is not registered at output
wdata_s1[108] is not registered at output
wdata_s1[107] is not registered at output
wdata_s1[106] is not registered at output
wdata_s1[105] is not registered at output
wdata_s1[104] is not registered at output
wdata_s1[103] is not registered at output
wdata_s1[102] is not registered at output
wdata_s1[101] is not registered at output
wdata_s1[100] is not registered at output
wdata_s1[99] is not registered at output
wdata_s1[98] is not registered at output
wdata_s1[97] is not registered at output
wdata_s1[96] is not registered at output
wdata_s1[95] is not registered at output
wdata_s1[94] is not registered at output
wdata_s1[93] is not registered at output
wdata_s1[92] is not registered at output
wdata_s1[91] is not registered at output
wdata_s1[90] is not registered at output
wdata_s1[89] is not registered at output
wdata_s1[88] is not registered at output
wdata_s1[87] is not registered at output
wdata_s1[86] is not registered at output
wdata_s1[85] is not registered at output
wdata_s1[84] is not registered at output
wdata_s1[83] is not registered at output
wdata_s1[82] is not registered at output
wdata_s1[81] is not registered at output
wdata_s1[80] is not registered at output
wdata_s1[79] is not registered at output
wdata_s1[78] is not registered at output
wdata_s1[77] is not registered at output
wdata_s1[76] is not registered at output
wdata_s1[75] is not registered at output
wdata_s1[74] is not registered at output
wdata_s1[73] is not registered at output
wdata_s1[72] is not registered at output
wdata_s1[71] is not registered at output
wdata_s1[70] is not registered at output
wdata_s1[69] is not registered at output
wdata_s1[68] is not registered at output
wdata_s1[67] is not registered at output
wdata_s1[66] is not registered at output
wdata_s1[65] is not registered at output
wdata_s1[64] is not registered at output
wdata_s1[63] is not registered at output
wdata_s1[62] is not registered at output
wdata_s1[61] is not registered at output
wdata_s1[60] is not registered at output
wdata_s1[59] is not registered at output
wdata_s1[58] is not registered at output
wdata_s1[57] is not registered at output
wdata_s1[56] is not registered at output
wdata_s1[55] is not registered at output
wdata_s1[54] is not registered at output
wdata_s1[53] is not registered at output
wdata_s1[52] is not registered at output
wdata_s1[51] is not registered at output
wdata_s1[50] is not registered at output
wdata_s1[49] is not registered at output
wdata_s1[48] is not registered at output
wdata_s1[47] is not registered at output
wdata_s1[46] is not registered at output
wdata_s1[45] is not registered at output
wdata_s1[44] is not registered at output
wdata_s1[43] is not registered at output
wdata_s1[42] is not registered at output
wdata_s1[41] is not registered at output
wdata_s1[40] is not registered at output
wdata_s1[39] is not registered at output
wdata_s1[38] is not registered at output
wdata_s1[37] is not registered at output
wdata_s1[36] is not registered at output
wdata_s1[35] is not registered at output
wdata_s1[34] is not registered at output
wdata_s1[33] is not registered at output
wdata_s1[32] is not registered at output
wdata_s1[31] is not registered at output
wdata_s1[30] is not registered at output
wdata_s1[29] is not registered at output
wdata_s1[28] is not registered at output
wdata_s1[27] is not registered at output
wdata_s1[26] is not registered at output
wdata_s1[25] is not registered at output
wdata_s1[24] is not registered at output
wdata_s1[23] is not registered at output
wdata_s1[22] is not registered at output
wdata_s1[21] is not registered at output
wdata_s1[20] is not registered at output
wdata_s1[19] is not registered at output
wdata_s1[18] is not registered at output
wdata_s1[17] is not registered at output
wdata_s1[16] is not registered at output
wdata_s1[15] is not registered at output
wdata_s1[14] is not registered at output
wdata_s1[13] is not registered at output
wdata_s1[12] is not registered at output
wdata_s1[11] is not registered at output
wdata_s1[10] is not registered at output
wdata_s1[9] is not registered at output
wdata_s1[8] is not registered at output
wdata_s1[7] is not registered at output
wdata_s1[6] is not registered at output
wdata_s1[5] is not registered at output
wdata_s1[4] is not registered at output
wdata_s1[3] is not registered at output
wdata_s1[2] is not registered at output
wdata_s1[1] is not registered at output
wdata_s1[0] is not registered at output
wstrb_s1[15] is not registered at output
wstrb_s1[14] is not registered at output
wstrb_s1[13] is not registered at output
wstrb_s1[12] is not registered at output
wstrb_s1[11] is not registered at output
wstrb_s1[10] is not registered at output
wstrb_s1[9] is not registered at output
wstrb_s1[8] is not registered at output
wstrb_s1[7] is not registered at output
wstrb_s1[6] is not registered at output
wstrb_s1[5] is not registered at output
wstrb_s1[4] is not registered at output
wstrb_s1[3] is not registered at output
wstrb_s1[2] is not registered at output
wstrb_s1[1] is not registered at output
wstrb_s1[0] is not registered at output
wlast_s1 is not registered at output
bready_s1 is not registered at output
arvalid_s1 is not registered at output
arid_s1[3] is not registered at output
arid_s1[2] is not registered at output
arid_s1[1] is not registered at output
arid_s1[0] is not registered at output
araddr_s1[31] is not registered at output
araddr_s1[30] is not registered at output
araddr_s1[29] is not registered at output
araddr_s1[28] is not registered at output
araddr_s1[27] is not registered at output
araddr_s1[26] is not registered at output
araddr_s1[25] is not registered at output
araddr_s1[24] is not registered at output
araddr_s1[23] is not registered at output
araddr_s1[22] is not registered at output
araddr_s1[21] is not registered at output
araddr_s1[20] is not registered at output
araddr_s1[19] is not registered at output
araddr_s1[18] is not registered at output
araddr_s1[17] is not registered at output
araddr_s1[16] is not registered at output
araddr_s1[15] is not registered at output
araddr_s1[14] is not registered at output
araddr_s1[13] is not registered at output
araddr_s1[12] is not registered at output
araddr_s1[11] is not registered at output
araddr_s1[10] is not registered at output
araddr_s1[9] is not registered at output
araddr_s1[8] is not registered at output
araddr_s1[7] is not registered at output
araddr_s1[6] is not registered at output
araddr_s1[5] is not registered at output
araddr_s1[4] is not registered at output
araddr_s1[3] is not registered at output
araddr_s1[2] is not registered at output
araddr_s1[1] is not registered at output
araddr_s1[0] is not registered at output
arlen_s1[3] is not registered at output
arlen_s1[2] is not registered at output
arlen_s1[1] is not registered at output
arlen_s1[0] is not registered at output
arsize_s1[2] is not registered at output
arsize_s1[1] is not registered at output
arsize_s1[0] is not registered at output
arburst_s1[1] is not registered at output
arburst_s1[0] is not registered at output
arlock_s1[1] is not registered at output
arlock_s1[0] is not registered at output
arcache_s1[3] is not registered at output
arcache_s1[2] is not registered at output
arcache_s1[1] is not registered at output
arcache_s1[0] is not registered at output
arprot_s1[2] is not registered at output
arprot_s1[1] is not registered at output
arprot_s1[0] is not registered at output
rready_s1 is not registered at output
awvalid_s2 is not registered at output
awaddr_s2[31] is not registered at output
awaddr_s2[30] is not registered at output
awaddr_s2[29] is not registered at output
awaddr_s2[28] is not registered at output
awaddr_s2[27] is not registered at output
awaddr_s2[26] is not registered at output
awaddr_s2[25] is not registered at output
awaddr_s2[24] is not registered at output
awaddr_s2[23] is not registered at output
awaddr_s2[22] is not registered at output
awaddr_s2[21] is not registered at output
awaddr_s2[20] is not registered at output
awaddr_s2[19] is not registered at output
awaddr_s2[18] is not registered at output
awaddr_s2[17] is not registered at output
awaddr_s2[16] is not registered at output
awaddr_s2[15] is not registered at output
awaddr_s2[14] is not registered at output
awaddr_s2[13] is not registered at output
awaddr_s2[12] is not registered at output
awaddr_s2[11] is not registered at output
awaddr_s2[10] is not registered at output
awaddr_s2[9] is not registered at output
awaddr_s2[8] is not registered at output
awaddr_s2[7] is not registered at output
awaddr_s2[6] is not registered at output
awaddr_s2[5] is not registered at output
awaddr_s2[4] is not registered at output
awaddr_s2[3] is not registered at output
awaddr_s2[2] is not registered at output
awaddr_s2[1] is not registered at output
awaddr_s2[0] is not registered at output
awid_s2[3] is not registered at output
awid_s2[2] is not registered at output
awid_s2[1] is not registered at output
awid_s2[0] is not registered at output
awlen_s2[3] is not registered at output
awlen_s2[2] is not registered at output
awlen_s2[1] is not registered at output
awlen_s2[0] is not registered at output
awsize_s2[2] is not registered at output
awsize_s2[1] is not registered at output
awsize_s2[0] is not registered at output
awburst_s2[1] is not registered at output
awburst_s2[0] is not registered at output
awlock_s2[1] is not registered at output
awlock_s2[0] is not registered at output
awcache_s2[3] is not registered at output
awcache_s2[2] is not registered at output
awcache_s2[1] is not registered at output
awcache_s2[0] is not registered at output
awprot_s2[2] is not registered at output
awprot_s2[1] is not registered at output
awprot_s2[0] is not registered at output
wvalid_s2 is not registered at output
wid_s2[3] is not registered at output
wid_s2[2] is not registered at output
wid_s2[1] is not registered at output
wid_s2[0] is not registered at output
wdata_s2[127] is not registered at output
wdata_s2[126] is not registered at output
wdata_s2[125] is not registered at output
wdata_s2[124] is not registered at output
wdata_s2[123] is not registered at output
wdata_s2[122] is not registered at output
wdata_s2[121] is not registered at output
wdata_s2[120] is not registered at output
wdata_s2[119] is not registered at output
wdata_s2[118] is not registered at output
wdata_s2[117] is not registered at output
wdata_s2[116] is not registered at output
wdata_s2[115] is not registered at output
wdata_s2[114] is not registered at output
wdata_s2[113] is not registered at output
wdata_s2[112] is not registered at output
wdata_s2[111] is not registered at output
wdata_s2[110] is not registered at output
wdata_s2[109] is not registered at output
wdata_s2[108] is not registered at output
wdata_s2[107] is not registered at output
wdata_s2[106] is not registered at output
wdata_s2[105] is not registered at output
wdata_s2[104] is not registered at output
wdata_s2[103] is not registered at output
wdata_s2[102] is not registered at output
wdata_s2[101] is not registered at output
wdata_s2[100] is not registered at output
wdata_s2[99] is not registered at output
wdata_s2[98] is not registered at output
wdata_s2[97] is not registered at output
wdata_s2[96] is not registered at output
wdata_s2[95] is not registered at output
wdata_s2[94] is not registered at output
wdata_s2[93] is not registered at output
wdata_s2[92] is not registered at output
wdata_s2[91] is not registered at output
wdata_s2[90] is not registered at output
wdata_s2[89] is not registered at output
wdata_s2[88] is not registered at output
wdata_s2[87] is not registered at output
wdata_s2[86] is not registered at output
wdata_s2[85] is not registered at output
wdata_s2[84] is not registered at output
wdata_s2[83] is not registered at output
wdata_s2[82] is not registered at output
wdata_s2[81] is not registered at output
wdata_s2[80] is not registered at output
wdata_s2[79] is not registered at output
wdata_s2[78] is not registered at output
wdata_s2[77] is not registered at output
wdata_s2[76] is not registered at output
wdata_s2[75] is not registered at output
wdata_s2[74] is not registered at output
wdata_s2[73] is not registered at output
wdata_s2[72] is not registered at output
wdata_s2[71] is not registered at output
wdata_s2[70] is not registered at output
wdata_s2[69] is not registered at output
wdata_s2[68] is not registered at output
wdata_s2[67] is not registered at output
wdata_s2[66] is not registered at output
wdata_s2[65] is not registered at output
wdata_s2[64] is not registered at output
wdata_s2[63] is not registered at output
wdata_s2[62] is not registered at output
wdata_s2[61] is not registered at output
wdata_s2[60] is not registered at output
wdata_s2[59] is not registered at output
wdata_s2[58] is not registered at output
wdata_s2[57] is not registered at output
wdata_s2[56] is not registered at output
wdata_s2[55] is not registered at output
wdata_s2[54] is not registered at output
wdata_s2[53] is not registered at output
wdata_s2[52] is not registered at output
wdata_s2[51] is not registered at output
wdata_s2[50] is not registered at output
wdata_s2[49] is not registered at output
wdata_s2[48] is not registered at output
wdata_s2[47] is not registered at output
wdata_s2[46] is not registered at output
wdata_s2[45] is not registered at output
wdata_s2[44] is not registered at output
wdata_s2[43] is not registered at output
wdata_s2[42] is not registered at output
wdata_s2[41] is not registered at output
wdata_s2[40] is not registered at output
wdata_s2[39] is not registered at output
wdata_s2[38] is not registered at output
wdata_s2[37] is not registered at output
wdata_s2[36] is not registered at output
wdata_s2[35] is not registered at output
wdata_s2[34] is not registered at output
wdata_s2[33] is not registered at output
wdata_s2[32] is not registered at output
wdata_s2[31] is not registered at output
wdata_s2[30] is not registered at output
wdata_s2[29] is not registered at output
wdata_s2[28] is not registered at output
wdata_s2[27] is not registered at output
wdata_s2[26] is not registered at output
wdata_s2[25] is not registered at output
wdata_s2[24] is not registered at output
wdata_s2[23] is not registered at output
wdata_s2[22] is not registered at output
wdata_s2[21] is not registered at output
wdata_s2[20] is not registered at output
wdata_s2[19] is not registered at output
wdata_s2[18] is not registered at output
wdata_s2[17] is not registered at output
wdata_s2[16] is not registered at output
wdata_s2[15] is not registered at output
wdata_s2[14] is not registered at output
wdata_s2[13] is not registered at output
wdata_s2[12] is not registered at output
wdata_s2[11] is not registered at output
wdata_s2[10] is not registered at output
wdata_s2[9] is not registered at output
wdata_s2[8] is not registered at output
wdata_s2[7] is not registered at output
wdata_s2[6] is not registered at output
wdata_s2[5] is not registered at output
wdata_s2[4] is not registered at output
wdata_s2[3] is not registered at output
wdata_s2[2] is not registered at output
wdata_s2[1] is not registered at output
wdata_s2[0] is not registered at output
wstrb_s2[15] is not registered at output
wstrb_s2[14] is not registered at output
wstrb_s2[13] is not registered at output
wstrb_s2[12] is not registered at output
wstrb_s2[11] is not registered at output
wstrb_s2[10] is not registered at output
wstrb_s2[9] is not registered at output
wstrb_s2[8] is not registered at output
wstrb_s2[7] is not registered at output
wstrb_s2[6] is not registered at output
wstrb_s2[5] is not registered at output
wstrb_s2[4] is not registered at output
wstrb_s2[3] is not registered at output
wstrb_s2[2] is not registered at output
wstrb_s2[1] is not registered at output
wstrb_s2[0] is not registered at output
wlast_s2 is not registered at output
bready_s2 is not registered at output
arvalid_s2 is not registered at output
arid_s2[3] is not registered at output
arid_s2[2] is not registered at output
arid_s2[1] is not registered at output
arid_s2[0] is not registered at output
araddr_s2[31] is not registered at output
araddr_s2[30] is not registered at output
araddr_s2[29] is not registered at output
araddr_s2[28] is not registered at output
araddr_s2[27] is not registered at output
araddr_s2[26] is not registered at output
araddr_s2[25] is not registered at output
araddr_s2[24] is not registered at output
araddr_s2[23] is not registered at output
araddr_s2[22] is not registered at output
araddr_s2[21] is not registered at output
araddr_s2[20] is not registered at output
araddr_s2[19] is not registered at output
araddr_s2[18] is not registered at output
araddr_s2[17] is not registered at output
araddr_s2[16] is not registered at output
araddr_s2[15] is not registered at output
araddr_s2[14] is not registered at output
araddr_s2[13] is not registered at output
araddr_s2[12] is not registered at output
araddr_s2[11] is not registered at output
araddr_s2[10] is not registered at output
araddr_s2[9] is not registered at output
araddr_s2[8] is not registered at output
araddr_s2[7] is not registered at output
araddr_s2[6] is not registered at output
araddr_s2[5] is not registered at output
araddr_s2[4] is not registered at output
araddr_s2[3] is not registered at output
araddr_s2[2] is not registered at output
araddr_s2[1] is not registered at output
araddr_s2[0] is not registered at output
arlen_s2[3] is not registered at output
arlen_s2[2] is not registered at output
arlen_s2[1] is not registered at output
arlen_s2[0] is not registered at output
arsize_s2[2] is not registered at output
arsize_s2[1] is not registered at output
arsize_s2[0] is not registered at output
arburst_s2[1] is not registered at output
arburst_s2[0] is not registered at output
arlock_s2[1] is not registered at output
arlock_s2[0] is not registered at output
arcache_s2[3] is not registered at output
arcache_s2[2] is not registered at output
arcache_s2[1] is not registered at output
arcache_s2[0] is not registered at output
arprot_s2[2] is not registered at output
arprot_s2[1] is not registered at output
arprot_s2[0] is not registered at output
rready_s2 is not registered at output
awvalid_s3 is not registered at output
awaddr_s3[31] is not registered at output
awaddr_s3[30] is not registered at output
awaddr_s3[29] is not registered at output
awaddr_s3[28] is not registered at output
awaddr_s3[27] is not registered at output
awaddr_s3[26] is not registered at output
awaddr_s3[25] is not registered at output
awaddr_s3[24] is not registered at output
awaddr_s3[23] is not registered at output
awaddr_s3[22] is not registered at output
awaddr_s3[21] is not registered at output
awaddr_s3[20] is not registered at output
awaddr_s3[19] is not registered at output
awaddr_s3[18] is not registered at output
awaddr_s3[17] is not registered at output
awaddr_s3[16] is not registered at output
awaddr_s3[15] is not registered at output
awaddr_s3[14] is not registered at output
awaddr_s3[13] is not registered at output
awaddr_s3[12] is not registered at output
awaddr_s3[11] is not registered at output
awaddr_s3[10] is not registered at output
awaddr_s3[9] is not registered at output
awaddr_s3[8] is not registered at output
awaddr_s3[7] is not registered at output
awaddr_s3[6] is not registered at output
awaddr_s3[5] is not registered at output
awaddr_s3[4] is not registered at output
awaddr_s3[3] is not registered at output
awaddr_s3[2] is not registered at output
awaddr_s3[1] is not registered at output
awaddr_s3[0] is not registered at output
awid_s3[3] is not registered at output
awid_s3[2] is not registered at output
awid_s3[1] is not registered at output
awid_s3[0] is not registered at output
awlen_s3[3] is not registered at output
awlen_s3[2] is not registered at output
awlen_s3[1] is not registered at output
awlen_s3[0] is not registered at output
awsize_s3[2] is not registered at output
awsize_s3[1] is not registered at output
awsize_s3[0] is not registered at output
awburst_s3[1] is not registered at output
awburst_s3[0] is not registered at output
awlock_s3[1] is not registered at output
awlock_s3[0] is not registered at output
awcache_s3[3] is not registered at output
awcache_s3[2] is not registered at output
awcache_s3[1] is not registered at output
awcache_s3[0] is not registered at output
awprot_s3[2] is not registered at output
awprot_s3[1] is not registered at output
awprot_s3[0] is not registered at output
wvalid_s3 is not registered at output
wid_s3[3] is not registered at output
wid_s3[2] is not registered at output
wid_s3[1] is not registered at output
wid_s3[0] is not registered at output
wdata_s3[127] is not registered at output
wdata_s3[126] is not registered at output
wdata_s3[125] is not registered at output
wdata_s3[124] is not registered at output
wdata_s3[123] is not registered at output
wdata_s3[122] is not registered at output
wdata_s3[121] is not registered at output
wdata_s3[120] is not registered at output
wdata_s3[119] is not registered at output
wdata_s3[118] is not registered at output
wdata_s3[117] is not registered at output
wdata_s3[116] is not registered at output
wdata_s3[115] is not registered at output
wdata_s3[114] is not registered at output
wdata_s3[113] is not registered at output
wdata_s3[112] is not registered at output
wdata_s3[111] is not registered at output
wdata_s3[110] is not registered at output
wdata_s3[109] is not registered at output
wdata_s3[108] is not registered at output
wdata_s3[107] is not registered at output
wdata_s3[106] is not registered at output
wdata_s3[105] is not registered at output
wdata_s3[104] is not registered at output
wdata_s3[103] is not registered at output
wdata_s3[102] is not registered at output
wdata_s3[101] is not registered at output
wdata_s3[100] is not registered at output
wdata_s3[99] is not registered at output
wdata_s3[98] is not registered at output
wdata_s3[97] is not registered at output
wdata_s3[96] is not registered at output
wdata_s3[95] is not registered at output
wdata_s3[94] is not registered at output
wdata_s3[93] is not registered at output
wdata_s3[92] is not registered at output
wdata_s3[91] is not registered at output
wdata_s3[90] is not registered at output
wdata_s3[89] is not registered at output
wdata_s3[88] is not registered at output
wdata_s3[87] is not registered at output
wdata_s3[86] is not registered at output
wdata_s3[85] is not registered at output
wdata_s3[84] is not registered at output
wdata_s3[83] is not registered at output
wdata_s3[82] is not registered at output
wdata_s3[81] is not registered at output
wdata_s3[80] is not registered at output
wdata_s3[79] is not registered at output
wdata_s3[78] is not registered at output
wdata_s3[77] is not registered at output
wdata_s3[76] is not registered at output
wdata_s3[75] is not registered at output
wdata_s3[74] is not registered at output
wdata_s3[73] is not registered at output
wdata_s3[72] is not registered at output
wdata_s3[71] is not registered at output
wdata_s3[70] is not registered at output
wdata_s3[69] is not registered at output
wdata_s3[68] is not registered at output
wdata_s3[67] is not registered at output
wdata_s3[66] is not registered at output
wdata_s3[65] is not registered at output
wdata_s3[64] is not registered at output
wdata_s3[63] is not registered at output
wdata_s3[62] is not registered at output
wdata_s3[61] is not registered at output
wdata_s3[60] is not registered at output
wdata_s3[59] is not registered at output
wdata_s3[58] is not registered at output
wdata_s3[57] is not registered at output
wdata_s3[56] is not registered at output
wdata_s3[55] is not registered at output
wdata_s3[54] is not registered at output
wdata_s3[53] is not registered at output
wdata_s3[52] is not registered at output
wdata_s3[51] is not registered at output
wdata_s3[50] is not registered at output
wdata_s3[49] is not registered at output
wdata_s3[48] is not registered at output
wdata_s3[47] is not registered at output
wdata_s3[46] is not registered at output
wdata_s3[45] is not registered at output
wdata_s3[44] is not registered at output
wdata_s3[43] is not registered at output
wdata_s3[42] is not registered at output
wdata_s3[41] is not registered at output
wdata_s3[40] is not registered at output
wdata_s3[39] is not registered at output
wdata_s3[38] is not registered at output
wdata_s3[37] is not registered at output
wdata_s3[36] is not registered at output
wdata_s3[35] is not registered at output
wdata_s3[34] is not registered at output
wdata_s3[33] is not registered at output
wdata_s3[32] is not registered at output
wdata_s3[31] is not registered at output
wdata_s3[30] is not registered at output
wdata_s3[29] is not registered at output
wdata_s3[28] is not registered at output
wdata_s3[27] is not registered at output
wdata_s3[26] is not registered at output
wdata_s3[25] is not registered at output
wdata_s3[24] is not registered at output
wdata_s3[23] is not registered at output
wdata_s3[22] is not registered at output
wdata_s3[21] is not registered at output
wdata_s3[20] is not registered at output
wdata_s3[19] is not registered at output
wdata_s3[18] is not registered at output
wdata_s3[17] is not registered at output
wdata_s3[16] is not registered at output
wdata_s3[15] is not registered at output
wdata_s3[14] is not registered at output
wdata_s3[13] is not registered at output
wdata_s3[12] is not registered at output
wdata_s3[11] is not registered at output
wdata_s3[10] is not registered at output
wdata_s3[9] is not registered at output
wdata_s3[8] is not registered at output
wdata_s3[7] is not registered at output
wdata_s3[6] is not registered at output
wdata_s3[5] is not registered at output
wdata_s3[4] is not registered at output
wdata_s3[3] is not registered at output
wdata_s3[2] is not registered at output
wdata_s3[1] is not registered at output
wdata_s3[0] is not registered at output
wstrb_s3[15] is not registered at output
wstrb_s3[14] is not registered at output
wstrb_s3[13] is not registered at output
wstrb_s3[12] is not registered at output
wstrb_s3[11] is not registered at output
wstrb_s3[10] is not registered at output
wstrb_s3[9] is not registered at output
wstrb_s3[8] is not registered at output
wstrb_s3[7] is not registered at output
wstrb_s3[6] is not registered at output
wstrb_s3[5] is not registered at output
wstrb_s3[4] is not registered at output
wstrb_s3[3] is not registered at output
wstrb_s3[2] is not registered at output
wstrb_s3[1] is not registered at output
wstrb_s3[0] is not registered at output
wlast_s3 is not registered at output
bready_s3 is not registered at output
arvalid_s3 is not registered at output
arid_s3[3] is not registered at output
arid_s3[2] is not registered at output
arid_s3[1] is not registered at output
arid_s3[0] is not registered at output
araddr_s3[31] is not registered at output
araddr_s3[30] is not registered at output
araddr_s3[29] is not registered at output
araddr_s3[28] is not registered at output
araddr_s3[27] is not registered at output
araddr_s3[26] is not registered at output
araddr_s3[25] is not registered at output
araddr_s3[24] is not registered at output
araddr_s3[23] is not registered at output
araddr_s3[22] is not registered at output
araddr_s3[21] is not registered at output
araddr_s3[20] is not registered at output
araddr_s3[19] is not registered at output
araddr_s3[18] is not registered at output
araddr_s3[17] is not registered at output
araddr_s3[16] is not registered at output
araddr_s3[15] is not registered at output
araddr_s3[14] is not registered at output
araddr_s3[13] is not registered at output
araddr_s3[12] is not registered at output
araddr_s3[11] is not registered at output
araddr_s3[10] is not registered at output
araddr_s3[9] is not registered at output
araddr_s3[8] is not registered at output
araddr_s3[7] is not registered at output
araddr_s3[6] is not registered at output
araddr_s3[5] is not registered at output
araddr_s3[4] is not registered at output
araddr_s3[3] is not registered at output
araddr_s3[2] is not registered at output
araddr_s3[1] is not registered at output
araddr_s3[0] is not registered at output
arlen_s3[3] is not registered at output
arlen_s3[2] is not registered at output
arlen_s3[1] is not registered at output
arlen_s3[0] is not registered at output
arsize_s3[2] is not registered at output
arsize_s3[1] is not registered at output
arsize_s3[0] is not registered at output
arburst_s3[1] is not registered at output
arburst_s3[0] is not registered at output
arlock_s3[1] is not registered at output
arlock_s3[0] is not registered at output
arcache_s3[3] is not registered at output
arcache_s3[2] is not registered at output
arcache_s3[1] is not registered at output
arcache_s3[0] is not registered at output
arprot_s3[2] is not registered at output
arprot_s3[1] is not registered at output
arprot_s3[0] is not registered at output
rready_s3 is not registered at output
awvalid_s4 is not registered at output
awaddr_s4[31] is not registered at output
awaddr_s4[30] is not registered at output
awaddr_s4[29] is not registered at output
awaddr_s4[28] is not registered at output
awaddr_s4[27] is not registered at output
awaddr_s4[26] is not registered at output
awaddr_s4[25] is not registered at output
awaddr_s4[24] is not registered at output
awaddr_s4[23] is not registered at output
awaddr_s4[22] is not registered at output
awaddr_s4[21] is not registered at output
awaddr_s4[20] is not registered at output
awaddr_s4[19] is not registered at output
awaddr_s4[18] is not registered at output
awaddr_s4[17] is not registered at output
awaddr_s4[16] is not registered at output
awaddr_s4[15] is not registered at output
awaddr_s4[14] is not registered at output
awaddr_s4[13] is not registered at output
awaddr_s4[12] is not registered at output
awaddr_s4[11] is not registered at output
awaddr_s4[10] is not registered at output
awaddr_s4[9] is not registered at output
awaddr_s4[8] is not registered at output
awaddr_s4[7] is not registered at output
awaddr_s4[6] is not registered at output
awaddr_s4[5] is not registered at output
awaddr_s4[4] is not registered at output
awaddr_s4[3] is not registered at output
awaddr_s4[2] is not registered at output
awaddr_s4[1] is not registered at output
awaddr_s4[0] is not registered at output
awid_s4[3] is not registered at output
awid_s4[2] is not registered at output
awid_s4[1] is not registered at output
awid_s4[0] is not registered at output
awlen_s4[3] is not registered at output
awlen_s4[2] is not registered at output
awlen_s4[1] is not registered at output
awlen_s4[0] is not registered at output
awsize_s4[2] is not registered at output
awsize_s4[1] is not registered at output
awsize_s4[0] is not registered at output
awburst_s4[1] is not registered at output
awburst_s4[0] is not registered at output
awlock_s4[1] is not registered at output
awlock_s4[0] is not registered at output
awcache_s4[3] is not registered at output
awcache_s4[2] is not registered at output
awcache_s4[1] is not registered at output
awcache_s4[0] is not registered at output
awprot_s4[2] is not registered at output
awprot_s4[1] is not registered at output
awprot_s4[0] is not registered at output
wvalid_s4 is not registered at output
wid_s4[3] is not registered at output
wid_s4[2] is not registered at output
wid_s4[1] is not registered at output
wid_s4[0] is not registered at output
wdata_s4[127] is not registered at output
wdata_s4[126] is not registered at output
wdata_s4[125] is not registered at output
wdata_s4[124] is not registered at output
wdata_s4[123] is not registered at output
wdata_s4[122] is not registered at output
wdata_s4[121] is not registered at output
wdata_s4[120] is not registered at output
wdata_s4[119] is not registered at output
wdata_s4[118] is not registered at output
wdata_s4[117] is not registered at output
wdata_s4[116] is not registered at output
wdata_s4[115] is not registered at output
wdata_s4[114] is not registered at output
wdata_s4[113] is not registered at output
wdata_s4[112] is not registered at output
wdata_s4[111] is not registered at output
wdata_s4[110] is not registered at output
wdata_s4[109] is not registered at output
wdata_s4[108] is not registered at output
wdata_s4[107] is not registered at output
wdata_s4[106] is not registered at output
wdata_s4[105] is not registered at output
wdata_s4[104] is not registered at output
wdata_s4[103] is not registered at output
wdata_s4[102] is not registered at output
wdata_s4[101] is not registered at output
wdata_s4[100] is not registered at output
wdata_s4[99] is not registered at output
wdata_s4[98] is not registered at output
wdata_s4[97] is not registered at output
wdata_s4[96] is not registered at output
wdata_s4[95] is not registered at output
wdata_s4[94] is not registered at output
wdata_s4[93] is not registered at output
wdata_s4[92] is not registered at output
wdata_s4[91] is not registered at output
wdata_s4[90] is not registered at output
wdata_s4[89] is not registered at output
wdata_s4[88] is not registered at output
wdata_s4[87] is not registered at output
wdata_s4[86] is not registered at output
wdata_s4[85] is not registered at output
wdata_s4[84] is not registered at output
wdata_s4[83] is not registered at output
wdata_s4[82] is not registered at output
wdata_s4[81] is not registered at output
wdata_s4[80] is not registered at output
wdata_s4[79] is not registered at output
wdata_s4[78] is not registered at output
wdata_s4[77] is not registered at output
wdata_s4[76] is not registered at output
wdata_s4[75] is not registered at output
wdata_s4[74] is not registered at output
wdata_s4[73] is not registered at output
wdata_s4[72] is not registered at output
wdata_s4[71] is not registered at output
wdata_s4[70] is not registered at output
wdata_s4[69] is not registered at output
wdata_s4[68] is not registered at output
wdata_s4[67] is not registered at output
wdata_s4[66] is not registered at output
wdata_s4[65] is not registered at output
wdata_s4[64] is not registered at output
wdata_s4[63] is not registered at output
wdata_s4[62] is not registered at output
wdata_s4[61] is not registered at output
wdata_s4[60] is not registered at output
wdata_s4[59] is not registered at output
wdata_s4[58] is not registered at output
wdata_s4[57] is not registered at output
wdata_s4[56] is not registered at output
wdata_s4[55] is not registered at output
wdata_s4[54] is not registered at output
wdata_s4[53] is not registered at output
wdata_s4[52] is not registered at output
wdata_s4[51] is not registered at output
wdata_s4[50] is not registered at output
wdata_s4[49] is not registered at output
wdata_s4[48] is not registered at output
wdata_s4[47] is not registered at output
wdata_s4[46] is not registered at output
wdata_s4[45] is not registered at output
wdata_s4[44] is not registered at output
wdata_s4[43] is not registered at output
wdata_s4[42] is not registered at output
wdata_s4[41] is not registered at output
wdata_s4[40] is not registered at output
wdata_s4[39] is not registered at output
wdata_s4[38] is not registered at output
wdata_s4[37] is not registered at output
wdata_s4[36] is not registered at output
wdata_s4[35] is not registered at output
wdata_s4[34] is not registered at output
wdata_s4[33] is not registered at output
wdata_s4[32] is not registered at output
wdata_s4[31] is not registered at output
wdata_s4[30] is not registered at output
wdata_s4[29] is not registered at output
wdata_s4[28] is not registered at output
wdata_s4[27] is not registered at output
wdata_s4[26] is not registered at output
wdata_s4[25] is not registered at output
wdata_s4[24] is not registered at output
wdata_s4[23] is not registered at output
wdata_s4[22] is not registered at output
wdata_s4[21] is not registered at output
wdata_s4[20] is not registered at output
wdata_s4[19] is not registered at output
wdata_s4[18] is not registered at output
wdata_s4[17] is not registered at output
wdata_s4[16] is not registered at output
wdata_s4[15] is not registered at output
wdata_s4[14] is not registered at output
wdata_s4[13] is not registered at output
wdata_s4[12] is not registered at output
wdata_s4[11] is not registered at output
wdata_s4[10] is not registered at output
wdata_s4[9] is not registered at output
wdata_s4[8] is not registered at output
wdata_s4[7] is not registered at output
wdata_s4[6] is not registered at output
wdata_s4[5] is not registered at output
wdata_s4[4] is not registered at output
wdata_s4[3] is not registered at output
wdata_s4[2] is not registered at output
wdata_s4[1] is not registered at output
wdata_s4[0] is not registered at output
wstrb_s4[15] is not registered at output
wstrb_s4[14] is not registered at output
wstrb_s4[13] is not registered at output
wstrb_s4[12] is not registered at output
wstrb_s4[11] is not registered at output
wstrb_s4[10] is not registered at output
wstrb_s4[9] is not registered at output
wstrb_s4[8] is not registered at output
wstrb_s4[7] is not registered at output
wstrb_s4[6] is not registered at output
wstrb_s4[5] is not registered at output
wstrb_s4[4] is not registered at output
wstrb_s4[3] is not registered at output
wstrb_s4[2] is not registered at output
wstrb_s4[1] is not registered at output
wstrb_s4[0] is not registered at output
wlast_s4 is not registered at output
bready_s4 is not registered at output
arvalid_s4 is not registered at output
arid_s4[3] is not registered at output
arid_s4[2] is not registered at output
arid_s4[1] is not registered at output
arid_s4[0] is not registered at output
araddr_s4[31] is not registered at output
araddr_s4[30] is not registered at output
araddr_s4[29] is not registered at output
araddr_s4[28] is not registered at output
araddr_s4[27] is not registered at output
araddr_s4[26] is not registered at output
araddr_s4[25] is not registered at output
araddr_s4[24] is not registered at output
araddr_s4[23] is not registered at output
araddr_s4[22] is not registered at output
araddr_s4[21] is not registered at output
araddr_s4[20] is not registered at output
araddr_s4[19] is not registered at output
araddr_s4[18] is not registered at output
araddr_s4[17] is not registered at output
araddr_s4[16] is not registered at output
araddr_s4[15] is not registered at output
araddr_s4[14] is not registered at output
araddr_s4[13] is not registered at output
araddr_s4[12] is not registered at output
araddr_s4[11] is not registered at output
araddr_s4[10] is not registered at output
araddr_s4[9] is not registered at output
araddr_s4[8] is not registered at output
araddr_s4[7] is not registered at output
araddr_s4[6] is not registered at output
araddr_s4[5] is not registered at output
araddr_s4[4] is not registered at output
araddr_s4[3] is not registered at output
araddr_s4[2] is not registered at output
araddr_s4[1] is not registered at output
araddr_s4[0] is not registered at output
arlen_s4[3] is not registered at output
arlen_s4[2] is not registered at output
arlen_s4[1] is not registered at output
arlen_s4[0] is not registered at output
arsize_s4[2] is not registered at output
arsize_s4[1] is not registered at output
arsize_s4[0] is not registered at output
arburst_s4[1] is not registered at output
arburst_s4[0] is not registered at output
arlock_s4[1] is not registered at output
arlock_s4[0] is not registered at output
arcache_s4[3] is not registered at output
arcache_s4[2] is not registered at output
arcache_s4[1] is not registered at output
arcache_s4[0] is not registered at output
arprot_s4[2] is not registered at output
arprot_s4[1] is not registered at output
arprot_s4[0] is not registered at output
rready_s4 is not registered at output
awvalid_s5 is not registered at output
awaddr_s5[31] is not registered at output
awaddr_s5[30] is not registered at output
awaddr_s5[29] is not registered at output
awaddr_s5[28] is not registered at output
awaddr_s5[27] is not registered at output
awaddr_s5[26] is not registered at output
awaddr_s5[25] is not registered at output
awaddr_s5[24] is not registered at output
awaddr_s5[23] is not registered at output
awaddr_s5[22] is not registered at output
awaddr_s5[21] is not registered at output
awaddr_s5[20] is not registered at output
awaddr_s5[19] is not registered at output
awaddr_s5[18] is not registered at output
awaddr_s5[17] is not registered at output
awaddr_s5[16] is not registered at output
awaddr_s5[15] is not registered at output
awaddr_s5[14] is not registered at output
awaddr_s5[13] is not registered at output
awaddr_s5[12] is not registered at output
awaddr_s5[11] is not registered at output
awaddr_s5[10] is not registered at output
awaddr_s5[9] is not registered at output
awaddr_s5[8] is not registered at output
awaddr_s5[7] is not registered at output
awaddr_s5[6] is not registered at output
awaddr_s5[5] is not registered at output
awaddr_s5[4] is not registered at output
awaddr_s5[3] is not registered at output
awaddr_s5[2] is not registered at output
awaddr_s5[1] is not registered at output
awaddr_s5[0] is not registered at output
awid_s5[3] is not registered at output
awid_s5[2] is not registered at output
awid_s5[1] is not registered at output
awid_s5[0] is not registered at output
awlen_s5[3] is not registered at output
awlen_s5[2] is not registered at output
awlen_s5[1] is not registered at output
awlen_s5[0] is not registered at output
awsize_s5[2] is not registered at output
awsize_s5[1] is not registered at output
awsize_s5[0] is not registered at output
awburst_s5[1] is not registered at output
awburst_s5[0] is not registered at output
awlock_s5[1] is not registered at output
awlock_s5[0] is not registered at output
awcache_s5[3] is not registered at output
awcache_s5[2] is not registered at output
awcache_s5[1] is not registered at output
awcache_s5[0] is not registered at output
awprot_s5[2] is not registered at output
awprot_s5[1] is not registered at output
awprot_s5[0] is not registered at output
wvalid_s5 is not registered at output
wid_s5[3] is not registered at output
wid_s5[2] is not registered at output
wid_s5[1] is not registered at output
wid_s5[0] is not registered at output
wdata_s5[127] is not registered at output
wdata_s5[126] is not registered at output
wdata_s5[125] is not registered at output
wdata_s5[124] is not registered at output
wdata_s5[123] is not registered at output
wdata_s5[122] is not registered at output
wdata_s5[121] is not registered at output
wdata_s5[120] is not registered at output
wdata_s5[119] is not registered at output
wdata_s5[118] is not registered at output
wdata_s5[117] is not registered at output
wdata_s5[116] is not registered at output
wdata_s5[115] is not registered at output
wdata_s5[114] is not registered at output
wdata_s5[113] is not registered at output
wdata_s5[112] is not registered at output
wdata_s5[111] is not registered at output
wdata_s5[110] is not registered at output
wdata_s5[109] is not registered at output
wdata_s5[108] is not registered at output
wdata_s5[107] is not registered at output
wdata_s5[106] is not registered at output
wdata_s5[105] is not registered at output
wdata_s5[104] is not registered at output
wdata_s5[103] is not registered at output
wdata_s5[102] is not registered at output
wdata_s5[101] is not registered at output
wdata_s5[100] is not registered at output
wdata_s5[99] is not registered at output
wdata_s5[98] is not registered at output
wdata_s5[97] is not registered at output
wdata_s5[96] is not registered at output
wdata_s5[95] is not registered at output
wdata_s5[94] is not registered at output
wdata_s5[93] is not registered at output
wdata_s5[92] is not registered at output
wdata_s5[91] is not registered at output
wdata_s5[90] is not registered at output
wdata_s5[89] is not registered at output
wdata_s5[88] is not registered at output
wdata_s5[87] is not registered at output
wdata_s5[86] is not registered at output
wdata_s5[85] is not registered at output
wdata_s5[84] is not registered at output
wdata_s5[83] is not registered at output
wdata_s5[82] is not registered at output
wdata_s5[81] is not registered at output
wdata_s5[80] is not registered at output
wdata_s5[79] is not registered at output
wdata_s5[78] is not registered at output
wdata_s5[77] is not registered at output
wdata_s5[76] is not registered at output
wdata_s5[75] is not registered at output
wdata_s5[74] is not registered at output
wdata_s5[73] is not registered at output
wdata_s5[72] is not registered at output
wdata_s5[71] is not registered at output
wdata_s5[70] is not registered at output
wdata_s5[69] is not registered at output
wdata_s5[68] is not registered at output
wdata_s5[67] is not registered at output
wdata_s5[66] is not registered at output
wdata_s5[65] is not registered at output
wdata_s5[64] is not registered at output
wdata_s5[63] is not registered at output
wdata_s5[62] is not registered at output
wdata_s5[61] is not registered at output
wdata_s5[60] is not registered at output
wdata_s5[59] is not registered at output
wdata_s5[58] is not registered at output
wdata_s5[57] is not registered at output
wdata_s5[56] is not registered at output
wdata_s5[55] is not registered at output
wdata_s5[54] is not registered at output
wdata_s5[53] is not registered at output
wdata_s5[52] is not registered at output
wdata_s5[51] is not registered at output
wdata_s5[50] is not registered at output
wdata_s5[49] is not registered at output
wdata_s5[48] is not registered at output
wdata_s5[47] is not registered at output
wdata_s5[46] is not registered at output
wdata_s5[45] is not registered at output
wdata_s5[44] is not registered at output
wdata_s5[43] is not registered at output
wdata_s5[42] is not registered at output
wdata_s5[41] is not registered at output
wdata_s5[40] is not registered at output
wdata_s5[39] is not registered at output
wdata_s5[38] is not registered at output
wdata_s5[37] is not registered at output
wdata_s5[36] is not registered at output
wdata_s5[35] is not registered at output
wdata_s5[34] is not registered at output
wdata_s5[33] is not registered at output
wdata_s5[32] is not registered at output
wdata_s5[31] is not registered at output
wdata_s5[30] is not registered at output
wdata_s5[29] is not registered at output
wdata_s5[28] is not registered at output
wdata_s5[27] is not registered at output
wdata_s5[26] is not registered at output
wdata_s5[25] is not registered at output
wdata_s5[24] is not registered at output
wdata_s5[23] is not registered at output
wdata_s5[22] is not registered at output
wdata_s5[21] is not registered at output
wdata_s5[20] is not registered at output
wdata_s5[19] is not registered at output
wdata_s5[18] is not registered at output
wdata_s5[17] is not registered at output
wdata_s5[16] is not registered at output
wdata_s5[15] is not registered at output
wdata_s5[14] is not registered at output
wdata_s5[13] is not registered at output
wdata_s5[12] is not registered at output
wdata_s5[11] is not registered at output
wdata_s5[10] is not registered at output
wdata_s5[9] is not registered at output
wdata_s5[8] is not registered at output
wdata_s5[7] is not registered at output
wdata_s5[6] is not registered at output
wdata_s5[5] is not registered at output
wdata_s5[4] is not registered at output
wdata_s5[3] is not registered at output
wdata_s5[2] is not registered at output
wdata_s5[1] is not registered at output
wdata_s5[0] is not registered at output
wstrb_s5[15] is not registered at output
wstrb_s5[14] is not registered at output
wstrb_s5[13] is not registered at output
wstrb_s5[12] is not registered at output
wstrb_s5[11] is not registered at output
wstrb_s5[10] is not registered at output
wstrb_s5[9] is not registered at output
wstrb_s5[8] is not registered at output
wstrb_s5[7] is not registered at output
wstrb_s5[6] is not registered at output
wstrb_s5[5] is not registered at output
wstrb_s5[4] is not registered at output
wstrb_s5[3] is not registered at output
wstrb_s5[2] is not registered at output
wstrb_s5[1] is not registered at output
wstrb_s5[0] is not registered at output
wlast_s5 is not registered at output
bready_s5 is not registered at output
arvalid_s5 is not registered at output
arid_s5[3] is not registered at output
arid_s5[2] is not registered at output
arid_s5[1] is not registered at output
arid_s5[0] is not registered at output
araddr_s5[31] is not registered at output
araddr_s5[30] is not registered at output
araddr_s5[29] is not registered at output
araddr_s5[28] is not registered at output
araddr_s5[27] is not registered at output
araddr_s5[26] is not registered at output
araddr_s5[25] is not registered at output
araddr_s5[24] is not registered at output
araddr_s5[23] is not registered at output
araddr_s5[22] is not registered at output
araddr_s5[21] is not registered at output
araddr_s5[20] is not registered at output
araddr_s5[19] is not registered at output
araddr_s5[18] is not registered at output
araddr_s5[17] is not registered at output
araddr_s5[16] is not registered at output
araddr_s5[15] is not registered at output
araddr_s5[14] is not registered at output
araddr_s5[13] is not registered at output
araddr_s5[12] is not registered at output
araddr_s5[11] is not registered at output
araddr_s5[10] is not registered at output
araddr_s5[9] is not registered at output
araddr_s5[8] is not registered at output
araddr_s5[7] is not registered at output
araddr_s5[6] is not registered at output
araddr_s5[5] is not registered at output
araddr_s5[4] is not registered at output
araddr_s5[3] is not registered at output
araddr_s5[2] is not registered at output
araddr_s5[1] is not registered at output
araddr_s5[0] is not registered at output
arlen_s5[3] is not registered at output
arlen_s5[2] is not registered at output
arlen_s5[1] is not registered at output
arlen_s5[0] is not registered at output
arsize_s5[2] is not registered at output
arsize_s5[1] is not registered at output
arsize_s5[0] is not registered at output
arburst_s5[1] is not registered at output
arburst_s5[0] is not registered at output
arlock_s5[1] is not registered at output
arlock_s5[0] is not registered at output
arcache_s5[3] is not registered at output
arcache_s5[2] is not registered at output
arcache_s5[1] is not registered at output
arcache_s5[0] is not registered at output
arprot_s5[2] is not registered at output
arprot_s5[1] is not registered at output
arprot_s5[0] is not registered at output
rready_s5 is not registered at output
awvalid_s6 is not registered at output
awaddr_s6[31] is not registered at output
awaddr_s6[30] is not registered at output
awaddr_s6[29] is not registered at output
awaddr_s6[28] is not registered at output
awaddr_s6[27] is not registered at output
awaddr_s6[26] is not registered at output
awaddr_s6[25] is not registered at output
awaddr_s6[24] is not registered at output
awaddr_s6[23] is not registered at output
awaddr_s6[22] is not registered at output
awaddr_s6[21] is not registered at output
awaddr_s6[20] is not registered at output
awaddr_s6[19] is not registered at output
awaddr_s6[18] is not registered at output
awaddr_s6[17] is not registered at output
awaddr_s6[16] is not registered at output
awaddr_s6[15] is not registered at output
awaddr_s6[14] is not registered at output
awaddr_s6[13] is not registered at output
awaddr_s6[12] is not registered at output
awaddr_s6[11] is not registered at output
awaddr_s6[10] is not registered at output
awaddr_s6[9] is not registered at output
awaddr_s6[8] is not registered at output
awaddr_s6[7] is not registered at output
awaddr_s6[6] is not registered at output
awaddr_s6[5] is not registered at output
awaddr_s6[4] is not registered at output
awaddr_s6[3] is not registered at output
awaddr_s6[2] is not registered at output
awaddr_s6[1] is not registered at output
awaddr_s6[0] is not registered at output
awid_s6[3] is not registered at output
awid_s6[2] is not registered at output
awid_s6[1] is not registered at output
awid_s6[0] is not registered at output
awlen_s6[3] is not registered at output
awlen_s6[2] is not registered at output
awlen_s6[1] is not registered at output
awlen_s6[0] is not registered at output
awsize_s6[2] is not registered at output
awsize_s6[1] is not registered at output
awsize_s6[0] is not registered at output
awburst_s6[1] is not registered at output
awburst_s6[0] is not registered at output
awlock_s6[1] is not registered at output
awlock_s6[0] is not registered at output
awcache_s6[3] is not registered at output
awcache_s6[2] is not registered at output
awcache_s6[1] is not registered at output
awcache_s6[0] is not registered at output
awprot_s6[2] is not registered at output
awprot_s6[1] is not registered at output
awprot_s6[0] is not registered at output
wvalid_s6 is not registered at output
wid_s6[3] is not registered at output
wid_s6[2] is not registered at output
wid_s6[1] is not registered at output
wid_s6[0] is not registered at output
wdata_s6[127] is not registered at output
wdata_s6[126] is not registered at output
wdata_s6[125] is not registered at output
wdata_s6[124] is not registered at output
wdata_s6[123] is not registered at output
wdata_s6[122] is not registered at output
wdata_s6[121] is not registered at output
wdata_s6[120] is not registered at output
wdata_s6[119] is not registered at output
wdata_s6[118] is not registered at output
wdata_s6[117] is not registered at output
wdata_s6[116] is not registered at output
wdata_s6[115] is not registered at output
wdata_s6[114] is not registered at output
wdata_s6[113] is not registered at output
wdata_s6[112] is not registered at output
wdata_s6[111] is not registered at output
wdata_s6[110] is not registered at output
wdata_s6[109] is not registered at output
wdata_s6[108] is not registered at output
wdata_s6[107] is not registered at output
wdata_s6[106] is not registered at output
wdata_s6[105] is not registered at output
wdata_s6[104] is not registered at output
wdata_s6[103] is not registered at output
wdata_s6[102] is not registered at output
wdata_s6[101] is not registered at output
wdata_s6[100] is not registered at output
wdata_s6[99] is not registered at output
wdata_s6[98] is not registered at output
wdata_s6[97] is not registered at output
wdata_s6[96] is not registered at output
wdata_s6[95] is not registered at output
wdata_s6[94] is not registered at output
wdata_s6[93] is not registered at output
wdata_s6[92] is not registered at output
wdata_s6[91] is not registered at output
wdata_s6[90] is not registered at output
wdata_s6[89] is not registered at output
wdata_s6[88] is not registered at output
wdata_s6[87] is not registered at output
wdata_s6[86] is not registered at output
wdata_s6[85] is not registered at output
wdata_s6[84] is not registered at output
wdata_s6[83] is not registered at output
wdata_s6[82] is not registered at output
wdata_s6[81] is not registered at output
wdata_s6[80] is not registered at output
wdata_s6[79] is not registered at output
wdata_s6[78] is not registered at output
wdata_s6[77] is not registered at output
wdata_s6[76] is not registered at output
wdata_s6[75] is not registered at output
wdata_s6[74] is not registered at output
wdata_s6[73] is not registered at output
wdata_s6[72] is not registered at output
wdata_s6[71] is not registered at output
wdata_s6[70] is not registered at output
wdata_s6[69] is not registered at output
wdata_s6[68] is not registered at output
wdata_s6[67] is not registered at output
wdata_s6[66] is not registered at output
wdata_s6[65] is not registered at output
wdata_s6[64] is not registered at output
wdata_s6[63] is not registered at output
wdata_s6[62] is not registered at output
wdata_s6[61] is not registered at output
wdata_s6[60] is not registered at output
wdata_s6[59] is not registered at output
wdata_s6[58] is not registered at output
wdata_s6[57] is not registered at output
wdata_s6[56] is not registered at output
wdata_s6[55] is not registered at output
wdata_s6[54] is not registered at output
wdata_s6[53] is not registered at output
wdata_s6[52] is not registered at output
wdata_s6[51] is not registered at output
wdata_s6[50] is not registered at output
wdata_s6[49] is not registered at output
wdata_s6[48] is not registered at output
wdata_s6[47] is not registered at output
wdata_s6[46] is not registered at output
wdata_s6[45] is not registered at output
wdata_s6[44] is not registered at output
wdata_s6[43] is not registered at output
wdata_s6[42] is not registered at output
wdata_s6[41] is not registered at output
wdata_s6[40] is not registered at output
wdata_s6[39] is not registered at output
wdata_s6[38] is not registered at output
wdata_s6[37] is not registered at output
wdata_s6[36] is not registered at output
wdata_s6[35] is not registered at output
wdata_s6[34] is not registered at output
wdata_s6[33] is not registered at output
wdata_s6[32] is not registered at output
wdata_s6[31] is not registered at output
wdata_s6[30] is not registered at output
wdata_s6[29] is not registered at output
wdata_s6[28] is not registered at output
wdata_s6[27] is not registered at output
wdata_s6[26] is not registered at output
wdata_s6[25] is not registered at output
wdata_s6[24] is not registered at output
wdata_s6[23] is not registered at output
wdata_s6[22] is not registered at output
wdata_s6[21] is not registered at output
wdata_s6[20] is not registered at output
wdata_s6[19] is not registered at output
wdata_s6[18] is not registered at output
wdata_s6[17] is not registered at output
wdata_s6[16] is not registered at output
wdata_s6[15] is not registered at output
wdata_s6[14] is not registered at output
wdata_s6[13] is not registered at output
wdata_s6[12] is not registered at output
wdata_s6[11] is not registered at output
wdata_s6[10] is not registered at output
wdata_s6[9] is not registered at output
wdata_s6[8] is not registered at output
wdata_s6[7] is not registered at output
wdata_s6[6] is not registered at output
wdata_s6[5] is not registered at output
wdata_s6[4] is not registered at output
wdata_s6[3] is not registered at output
wdata_s6[2] is not registered at output
wdata_s6[1] is not registered at output
wdata_s6[0] is not registered at output
wstrb_s6[15] is not registered at output
wstrb_s6[14] is not registered at output
wstrb_s6[13] is not registered at output
wstrb_s6[12] is not registered at output
wstrb_s6[11] is not registered at output
wstrb_s6[10] is not registered at output
wstrb_s6[9] is not registered at output
wstrb_s6[8] is not registered at output
wstrb_s6[7] is not registered at output
wstrb_s6[6] is not registered at output
wstrb_s6[5] is not registered at output
wstrb_s6[4] is not registered at output
wstrb_s6[3] is not registered at output
wstrb_s6[2] is not registered at output
wstrb_s6[1] is not registered at output
wstrb_s6[0] is not registered at output
wlast_s6 is not registered at output
bready_s6 is not registered at output
arvalid_s6 is not registered at output
arid_s6[3] is not registered at output
arid_s6[2] is not registered at output
arid_s6[1] is not registered at output
arid_s6[0] is not registered at output
araddr_s6[31] is not registered at output
araddr_s6[30] is not registered at output
araddr_s6[29] is not registered at output
araddr_s6[28] is not registered at output
araddr_s6[27] is not registered at output
araddr_s6[26] is not registered at output
araddr_s6[25] is not registered at output
araddr_s6[24] is not registered at output
araddr_s6[23] is not registered at output
araddr_s6[22] is not registered at output
araddr_s6[21] is not registered at output
araddr_s6[20] is not registered at output
araddr_s6[19] is not registered at output
araddr_s6[18] is not registered at output
araddr_s6[17] is not registered at output
araddr_s6[16] is not registered at output
araddr_s6[15] is not registered at output
araddr_s6[14] is not registered at output
araddr_s6[13] is not registered at output
araddr_s6[12] is not registered at output
araddr_s6[11] is not registered at output
araddr_s6[10] is not registered at output
araddr_s6[9] is not registered at output
araddr_s6[8] is not registered at output
araddr_s6[7] is not registered at output
araddr_s6[6] is not registered at output
araddr_s6[5] is not registered at output
araddr_s6[4] is not registered at output
araddr_s6[3] is not registered at output
araddr_s6[2] is not registered at output
araddr_s6[1] is not registered at output
araddr_s6[0] is not registered at output
arlen_s6[3] is not registered at output
arlen_s6[2] is not registered at output
arlen_s6[1] is not registered at output
arlen_s6[0] is not registered at output
arsize_s6[2] is not registered at output
arsize_s6[1] is not registered at output
arsize_s6[0] is not registered at output
arburst_s6[1] is not registered at output
arburst_s6[0] is not registered at output
arlock_s6[1] is not registered at output
arlock_s6[0] is not registered at output
arcache_s6[3] is not registered at output
arcache_s6[2] is not registered at output
arcache_s6[1] is not registered at output
arcache_s6[0] is not registered at output
arprot_s6[2] is not registered at output
arprot_s6[1] is not registered at output
arprot_s6[0] is not registered at output
rready_s6 is not registered at output
awvalid_s7 is not registered at output
awaddr_s7[31] is not registered at output
awaddr_s7[30] is not registered at output
awaddr_s7[29] is not registered at output
awaddr_s7[28] is not registered at output
awaddr_s7[27] is not registered at output
awaddr_s7[26] is not registered at output
awaddr_s7[25] is not registered at output
awaddr_s7[24] is not registered at output
awaddr_s7[23] is not registered at output
awaddr_s7[22] is not registered at output
awaddr_s7[21] is not registered at output
awaddr_s7[20] is not registered at output
awaddr_s7[19] is not registered at output
awaddr_s7[18] is not registered at output
awaddr_s7[17] is not registered at output
awaddr_s7[16] is not registered at output
awaddr_s7[15] is not registered at output
awaddr_s7[14] is not registered at output
awaddr_s7[13] is not registered at output
awaddr_s7[12] is not registered at output
awaddr_s7[11] is not registered at output
awaddr_s7[10] is not registered at output
awaddr_s7[9] is not registered at output
awaddr_s7[8] is not registered at output
awaddr_s7[7] is not registered at output
awaddr_s7[6] is not registered at output
awaddr_s7[5] is not registered at output
awaddr_s7[4] is not registered at output
awaddr_s7[3] is not registered at output
awaddr_s7[2] is not registered at output
awaddr_s7[1] is not registered at output
awaddr_s7[0] is not registered at output
awid_s7[3] is not registered at output
awid_s7[2] is not registered at output
awid_s7[1] is not registered at output
awid_s7[0] is not registered at output
awlen_s7[3] is not registered at output
awlen_s7[2] is not registered at output
awlen_s7[1] is not registered at output
awlen_s7[0] is not registered at output
awsize_s7[2] is not registered at output
awsize_s7[1] is not registered at output
awsize_s7[0] is not registered at output
awburst_s7[1] is not registered at output
awburst_s7[0] is not registered at output
awlock_s7[1] is not registered at output
awlock_s7[0] is not registered at output
awcache_s7[3] is not registered at output
awcache_s7[2] is not registered at output
awcache_s7[1] is not registered at output
awcache_s7[0] is not registered at output
awprot_s7[2] is not registered at output
awprot_s7[1] is not registered at output
awprot_s7[0] is not registered at output
wvalid_s7 is not registered at output
wid_s7[3] is not registered at output
wid_s7[2] is not registered at output
wid_s7[1] is not registered at output
wid_s7[0] is not registered at output
wdata_s7[127] is not registered at output
wdata_s7[126] is not registered at output
wdata_s7[125] is not registered at output
wdata_s7[124] is not registered at output
wdata_s7[123] is not registered at output
wdata_s7[122] is not registered at output
wdata_s7[121] is not registered at output
wdata_s7[120] is not registered at output
wdata_s7[119] is not registered at output
wdata_s7[118] is not registered at output
wdata_s7[117] is not registered at output
wdata_s7[116] is not registered at output
wdata_s7[115] is not registered at output
wdata_s7[114] is not registered at output
wdata_s7[113] is not registered at output
wdata_s7[112] is not registered at output
wdata_s7[111] is not registered at output
wdata_s7[110] is not registered at output
wdata_s7[109] is not registered at output
wdata_s7[108] is not registered at output
wdata_s7[107] is not registered at output
wdata_s7[106] is not registered at output
wdata_s7[105] is not registered at output
wdata_s7[104] is not registered at output
wdata_s7[103] is not registered at output
wdata_s7[102] is not registered at output
wdata_s7[101] is not registered at output
wdata_s7[100] is not registered at output
wdata_s7[99] is not registered at output
wdata_s7[98] is not registered at output
wdata_s7[97] is not registered at output
wdata_s7[96] is not registered at output
wdata_s7[95] is not registered at output
wdata_s7[94] is not registered at output
wdata_s7[93] is not registered at output
wdata_s7[92] is not registered at output
wdata_s7[91] is not registered at output
wdata_s7[90] is not registered at output
wdata_s7[89] is not registered at output
wdata_s7[88] is not registered at output
wdata_s7[87] is not registered at output
wdata_s7[86] is not registered at output
wdata_s7[85] is not registered at output
wdata_s7[84] is not registered at output
wdata_s7[83] is not registered at output
wdata_s7[82] is not registered at output
wdata_s7[81] is not registered at output
wdata_s7[80] is not registered at output
wdata_s7[79] is not registered at output
wdata_s7[78] is not registered at output
wdata_s7[77] is not registered at output
wdata_s7[76] is not registered at output
wdata_s7[75] is not registered at output
wdata_s7[74] is not registered at output
wdata_s7[73] is not registered at output
wdata_s7[72] is not registered at output
wdata_s7[71] is not registered at output
wdata_s7[70] is not registered at output
wdata_s7[69] is not registered at output
wdata_s7[68] is not registered at output
wdata_s7[67] is not registered at output
wdata_s7[66] is not registered at output
wdata_s7[65] is not registered at output
wdata_s7[64] is not registered at output
wdata_s7[63] is not registered at output
wdata_s7[62] is not registered at output
wdata_s7[61] is not registered at output
wdata_s7[60] is not registered at output
wdata_s7[59] is not registered at output
wdata_s7[58] is not registered at output
wdata_s7[57] is not registered at output
wdata_s7[56] is not registered at output
wdata_s7[55] is not registered at output
wdata_s7[54] is not registered at output
wdata_s7[53] is not registered at output
wdata_s7[52] is not registered at output
wdata_s7[51] is not registered at output
wdata_s7[50] is not registered at output
wdata_s7[49] is not registered at output
wdata_s7[48] is not registered at output
wdata_s7[47] is not registered at output
wdata_s7[46] is not registered at output
wdata_s7[45] is not registered at output
wdata_s7[44] is not registered at output
wdata_s7[43] is not registered at output
wdata_s7[42] is not registered at output
wdata_s7[41] is not registered at output
wdata_s7[40] is not registered at output
wdata_s7[39] is not registered at output
wdata_s7[38] is not registered at output
wdata_s7[37] is not registered at output
wdata_s7[36] is not registered at output
wdata_s7[35] is not registered at output
wdata_s7[34] is not registered at output
wdata_s7[33] is not registered at output
wdata_s7[32] is not registered at output
wdata_s7[31] is not registered at output
wdata_s7[30] is not registered at output
wdata_s7[29] is not registered at output
wdata_s7[28] is not registered at output
wdata_s7[27] is not registered at output
wdata_s7[26] is not registered at output
wdata_s7[25] is not registered at output
wdata_s7[24] is not registered at output
wdata_s7[23] is not registered at output
wdata_s7[22] is not registered at output
wdata_s7[21] is not registered at output
wdata_s7[20] is not registered at output
wdata_s7[19] is not registered at output
wdata_s7[18] is not registered at output
wdata_s7[17] is not registered at output
wdata_s7[16] is not registered at output
wdata_s7[15] is not registered at output
wdata_s7[14] is not registered at output
wdata_s7[13] is not registered at output
wdata_s7[12] is not registered at output
wdata_s7[11] is not registered at output
wdata_s7[10] is not registered at output
wdata_s7[9] is not registered at output
wdata_s7[8] is not registered at output
wdata_s7[7] is not registered at output
wdata_s7[6] is not registered at output
wdata_s7[5] is not registered at output
wdata_s7[4] is not registered at output
wdata_s7[3] is not registered at output
wdata_s7[2] is not registered at output
wdata_s7[1] is not registered at output
wdata_s7[0] is not registered at output
wstrb_s7[15] is not registered at output
wstrb_s7[14] is not registered at output
wstrb_s7[13] is not registered at output
wstrb_s7[12] is not registered at output
wstrb_s7[11] is not registered at output
wstrb_s7[10] is not registered at output
wstrb_s7[9] is not registered at output
wstrb_s7[8] is not registered at output
wstrb_s7[7] is not registered at output
wstrb_s7[6] is not registered at output
wstrb_s7[5] is not registered at output
wstrb_s7[4] is not registered at output
wstrb_s7[3] is not registered at output
wstrb_s7[2] is not registered at output
wstrb_s7[1] is not registered at output
wstrb_s7[0] is not registered at output
wlast_s7 is not registered at output
bready_s7 is not registered at output
arvalid_s7 is not registered at output
arid_s7[3] is not registered at output
arid_s7[2] is not registered at output
arid_s7[1] is not registered at output
arid_s7[0] is not registered at output
araddr_s7[31] is not registered at output
araddr_s7[30] is not registered at output
araddr_s7[29] is not registered at output
araddr_s7[28] is not registered at output
araddr_s7[27] is not registered at output
araddr_s7[26] is not registered at output
araddr_s7[25] is not registered at output
araddr_s7[24] is not registered at output
araddr_s7[23] is not registered at output
araddr_s7[22] is not registered at output
araddr_s7[21] is not registered at output
araddr_s7[20] is not registered at output
araddr_s7[19] is not registered at output
araddr_s7[18] is not registered at output
araddr_s7[17] is not registered at output
araddr_s7[16] is not registered at output
araddr_s7[15] is not registered at output
araddr_s7[14] is not registered at output
araddr_s7[13] is not registered at output
araddr_s7[12] is not registered at output
araddr_s7[11] is not registered at output
araddr_s7[10] is not registered at output
araddr_s7[9] is not registered at output
araddr_s7[8] is not registered at output
araddr_s7[7] is not registered at output
araddr_s7[6] is not registered at output
araddr_s7[5] is not registered at output
araddr_s7[4] is not registered at output
araddr_s7[3] is not registered at output
araddr_s7[2] is not registered at output
araddr_s7[1] is not registered at output
araddr_s7[0] is not registered at output
arlen_s7[3] is not registered at output
arlen_s7[2] is not registered at output
arlen_s7[1] is not registered at output
arlen_s7[0] is not registered at output
arsize_s7[2] is not registered at output
arsize_s7[1] is not registered at output
arsize_s7[0] is not registered at output
arburst_s7[1] is not registered at output
arburst_s7[0] is not registered at output
arlock_s7[1] is not registered at output
arlock_s7[0] is not registered at output
arcache_s7[3] is not registered at output
arcache_s7[2] is not registered at output
arcache_s7[1] is not registered at output
arcache_s7[0] is not registered at output
arprot_s7[2] is not registered at output
arprot_s7[1] is not registered at output
arprot_s7[0] is not registered at output
rready_s7 is not registered at output
dbg_awid_s0[3] is not registered at output
dbg_awid_s0[2] is not registered at output
dbg_awid_s0[1] is not registered at output
dbg_awid_s0[0] is not registered at output
dbg_awaddr_s0[31] is not registered at output
dbg_awaddr_s0[30] is not registered at output
dbg_awaddr_s0[29] is not registered at output
dbg_awaddr_s0[28] is not registered at output
dbg_awaddr_s0[27] is not registered at output
dbg_awaddr_s0[26] is not registered at output
dbg_awaddr_s0[25] is not registered at output
dbg_awaddr_s0[24] is not registered at output
dbg_awaddr_s0[23] is not registered at output
dbg_awaddr_s0[22] is not registered at output
dbg_awaddr_s0[21] is not registered at output
dbg_awaddr_s0[20] is not registered at output
dbg_awaddr_s0[19] is not registered at output
dbg_awaddr_s0[18] is not registered at output
dbg_awaddr_s0[17] is not registered at output
dbg_awaddr_s0[16] is not registered at output
dbg_awaddr_s0[15] is not registered at output
dbg_awaddr_s0[14] is not registered at output
dbg_awaddr_s0[13] is not registered at output
dbg_awaddr_s0[12] is not registered at output
dbg_awaddr_s0[11] is not registered at output
dbg_awaddr_s0[10] is not registered at output
dbg_awaddr_s0[9] is not registered at output
dbg_awaddr_s0[8] is not registered at output
dbg_awaddr_s0[7] is not registered at output
dbg_awaddr_s0[6] is not registered at output
dbg_awaddr_s0[5] is not registered at output
dbg_awaddr_s0[4] is not registered at output
dbg_awaddr_s0[3] is not registered at output
dbg_awaddr_s0[2] is not registered at output
dbg_awaddr_s0[1] is not registered at output
dbg_awaddr_s0[0] is not registered at output
dbg_awlen_s0[3] is not registered at output
dbg_awlen_s0[2] is not registered at output
dbg_awlen_s0[1] is not registered at output
dbg_awlen_s0[0] is not registered at output
dbg_awsize_s0[2] is not registered at output
dbg_awsize_s0[1] is not registered at output
dbg_awsize_s0[0] is not registered at output
dbg_awburst_s0[1] is not registered at output
dbg_awburst_s0[0] is not registered at output
dbg_awlock_s0[1] is not registered at output
dbg_awlock_s0[0] is not registered at output
dbg_awcache_s0[3] is not registered at output
dbg_awcache_s0[2] is not registered at output
dbg_awcache_s0[1] is not registered at output
dbg_awcache_s0[0] is not registered at output
dbg_awprot_s0[2] is not registered at output
dbg_awprot_s0[1] is not registered at output
dbg_awprot_s0[0] is not registered at output
dbg_awvalid_s0 is not registered at output
dbg_awready_s0 is not registered at output
dbg_wid_s0[3] is not registered at output
dbg_wid_s0[2] is not registered at output
dbg_wid_s0[1] is not registered at output
dbg_wid_s0[0] is not registered at output
dbg_wdata_s0[127] is not registered at output
dbg_wdata_s0[126] is not registered at output
dbg_wdata_s0[125] is not registered at output
dbg_wdata_s0[124] is not registered at output
dbg_wdata_s0[123] is not registered at output
dbg_wdata_s0[122] is not registered at output
dbg_wdata_s0[121] is not registered at output
dbg_wdata_s0[120] is not registered at output
dbg_wdata_s0[119] is not registered at output
dbg_wdata_s0[118] is not registered at output
dbg_wdata_s0[117] is not registered at output
dbg_wdata_s0[116] is not registered at output
dbg_wdata_s0[115] is not registered at output
dbg_wdata_s0[114] is not registered at output
dbg_wdata_s0[113] is not registered at output
dbg_wdata_s0[112] is not registered at output
dbg_wdata_s0[111] is not registered at output
dbg_wdata_s0[110] is not registered at output
dbg_wdata_s0[109] is not registered at output
dbg_wdata_s0[108] is not registered at output
dbg_wdata_s0[107] is not registered at output
dbg_wdata_s0[106] is not registered at output
dbg_wdata_s0[105] is not registered at output
dbg_wdata_s0[104] is not registered at output
dbg_wdata_s0[103] is not registered at output
dbg_wdata_s0[102] is not registered at output
dbg_wdata_s0[101] is not registered at output
dbg_wdata_s0[100] is not registered at output
dbg_wdata_s0[99] is not registered at output
dbg_wdata_s0[98] is not registered at output
dbg_wdata_s0[97] is not registered at output
dbg_wdata_s0[96] is not registered at output
dbg_wdata_s0[95] is not registered at output
dbg_wdata_s0[94] is not registered at output
dbg_wdata_s0[93] is not registered at output
dbg_wdata_s0[92] is not registered at output
dbg_wdata_s0[91] is not registered at output
dbg_wdata_s0[90] is not registered at output
dbg_wdata_s0[89] is not registered at output
dbg_wdata_s0[88] is not registered at output
dbg_wdata_s0[87] is not registered at output
dbg_wdata_s0[86] is not registered at output
dbg_wdata_s0[85] is not registered at output
dbg_wdata_s0[84] is not registered at output
dbg_wdata_s0[83] is not registered at output
dbg_wdata_s0[82] is not registered at output
dbg_wdata_s0[81] is not registered at output
dbg_wdata_s0[80] is not registered at output
dbg_wdata_s0[79] is not registered at output
dbg_wdata_s0[78] is not registered at output
dbg_wdata_s0[77] is not registered at output
dbg_wdata_s0[76] is not registered at output
dbg_wdata_s0[75] is not registered at output
dbg_wdata_s0[74] is not registered at output
dbg_wdata_s0[73] is not registered at output
dbg_wdata_s0[72] is not registered at output
dbg_wdata_s0[71] is not registered at output
dbg_wdata_s0[70] is not registered at output
dbg_wdata_s0[69] is not registered at output
dbg_wdata_s0[68] is not registered at output
dbg_wdata_s0[67] is not registered at output
dbg_wdata_s0[66] is not registered at output
dbg_wdata_s0[65] is not registered at output
dbg_wdata_s0[64] is not registered at output
dbg_wdata_s0[63] is not registered at output
dbg_wdata_s0[62] is not registered at output
dbg_wdata_s0[61] is not registered at output
dbg_wdata_s0[60] is not registered at output
dbg_wdata_s0[59] is not registered at output
dbg_wdata_s0[58] is not registered at output
dbg_wdata_s0[57] is not registered at output
dbg_wdata_s0[56] is not registered at output
dbg_wdata_s0[55] is not registered at output
dbg_wdata_s0[54] is not registered at output
dbg_wdata_s0[53] is not registered at output
dbg_wdata_s0[52] is not registered at output
dbg_wdata_s0[51] is not registered at output
dbg_wdata_s0[50] is not registered at output
dbg_wdata_s0[49] is not registered at output
dbg_wdata_s0[48] is not registered at output
dbg_wdata_s0[47] is not registered at output
dbg_wdata_s0[46] is not registered at output
dbg_wdata_s0[45] is not registered at output
dbg_wdata_s0[44] is not registered at output
dbg_wdata_s0[43] is not registered at output
dbg_wdata_s0[42] is not registered at output
dbg_wdata_s0[41] is not registered at output
dbg_wdata_s0[40] is not registered at output
dbg_wdata_s0[39] is not registered at output
dbg_wdata_s0[38] is not registered at output
dbg_wdata_s0[37] is not registered at output
dbg_wdata_s0[36] is not registered at output
dbg_wdata_s0[35] is not registered at output
dbg_wdata_s0[34] is not registered at output
dbg_wdata_s0[33] is not registered at output
dbg_wdata_s0[32] is not registered at output
dbg_wdata_s0[31] is not registered at output
dbg_wdata_s0[30] is not registered at output
dbg_wdata_s0[29] is not registered at output
dbg_wdata_s0[28] is not registered at output
dbg_wdata_s0[27] is not registered at output
dbg_wdata_s0[26] is not registered at output
dbg_wdata_s0[25] is not registered at output
dbg_wdata_s0[24] is not registered at output
dbg_wdata_s0[23] is not registered at output
dbg_wdata_s0[22] is not registered at output
dbg_wdata_s0[21] is not registered at output
dbg_wdata_s0[20] is not registered at output
dbg_wdata_s0[19] is not registered at output
dbg_wdata_s0[18] is not registered at output
dbg_wdata_s0[17] is not registered at output
dbg_wdata_s0[16] is not registered at output
dbg_wdata_s0[15] is not registered at output
dbg_wdata_s0[14] is not registered at output
dbg_wdata_s0[13] is not registered at output
dbg_wdata_s0[12] is not registered at output
dbg_wdata_s0[11] is not registered at output
dbg_wdata_s0[10] is not registered at output
dbg_wdata_s0[9] is not registered at output
dbg_wdata_s0[8] is not registered at output
dbg_wdata_s0[7] is not registered at output
dbg_wdata_s0[6] is not registered at output
dbg_wdata_s0[5] is not registered at output
dbg_wdata_s0[4] is not registered at output
dbg_wdata_s0[3] is not registered at output
dbg_wdata_s0[2] is not registered at output
dbg_wdata_s0[1] is not registered at output
dbg_wdata_s0[0] is not registered at output
dbg_wstrb_s0[15] is not registered at output
dbg_wstrb_s0[14] is not registered at output
dbg_wstrb_s0[13] is not registered at output
dbg_wstrb_s0[12] is not registered at output
dbg_wstrb_s0[11] is not registered at output
dbg_wstrb_s0[10] is not registered at output
dbg_wstrb_s0[9] is not registered at output
dbg_wstrb_s0[8] is not registered at output
dbg_wstrb_s0[7] is not registered at output
dbg_wstrb_s0[6] is not registered at output
dbg_wstrb_s0[5] is not registered at output
dbg_wstrb_s0[4] is not registered at output
dbg_wstrb_s0[3] is not registered at output
dbg_wstrb_s0[2] is not registered at output
dbg_wstrb_s0[1] is not registered at output
dbg_wstrb_s0[0] is not registered at output
dbg_wlast_s0 is not registered at output
dbg_wvalid_s0 is not registered at output
dbg_wready_s0 is not registered at output
dbg_bid_s0[3] is not registered at output
dbg_bid_s0[2] is not registered at output
dbg_bid_s0[1] is not registered at output
dbg_bid_s0[0] is not registered at output
dbg_bresp_s0[1] is not registered at output
dbg_bresp_s0[0] is not registered at output
dbg_bvalid_s0 is not registered at output
dbg_bready_s0 is not registered at output
dbg_arid_s0[3] is not registered at output
dbg_arid_s0[2] is not registered at output
dbg_arid_s0[1] is not registered at output
dbg_arid_s0[0] is not registered at output
dbg_araddr_s0[31] is not registered at output
dbg_araddr_s0[30] is not registered at output
dbg_araddr_s0[29] is not registered at output
dbg_araddr_s0[28] is not registered at output
dbg_araddr_s0[27] is not registered at output
dbg_araddr_s0[26] is not registered at output
dbg_araddr_s0[25] is not registered at output
dbg_araddr_s0[24] is not registered at output
dbg_araddr_s0[23] is not registered at output
dbg_araddr_s0[22] is not registered at output
dbg_araddr_s0[21] is not registered at output
dbg_araddr_s0[20] is not registered at output
dbg_araddr_s0[19] is not registered at output
dbg_araddr_s0[18] is not registered at output
dbg_araddr_s0[17] is not registered at output
dbg_araddr_s0[16] is not registered at output
dbg_araddr_s0[15] is not registered at output
dbg_araddr_s0[14] is not registered at output
dbg_araddr_s0[13] is not registered at output
dbg_araddr_s0[12] is not registered at output
dbg_araddr_s0[11] is not registered at output
dbg_araddr_s0[10] is not registered at output
dbg_araddr_s0[9] is not registered at output
dbg_araddr_s0[8] is not registered at output
dbg_araddr_s0[7] is not registered at output
dbg_araddr_s0[6] is not registered at output
dbg_araddr_s0[5] is not registered at output
dbg_araddr_s0[4] is not registered at output
dbg_araddr_s0[3] is not registered at output
dbg_araddr_s0[2] is not registered at output
dbg_araddr_s0[1] is not registered at output
dbg_araddr_s0[0] is not registered at output
dbg_arlen_s0[3] is not registered at output
dbg_arlen_s0[2] is not registered at output
dbg_arlen_s0[1] is not registered at output
dbg_arlen_s0[0] is not registered at output
dbg_arsize_s0[2] is not registered at output
dbg_arsize_s0[1] is not registered at output
dbg_arsize_s0[0] is not registered at output
dbg_arburst_s0[1] is not registered at output
dbg_arburst_s0[0] is not registered at output
dbg_arlock_s0[1] is not registered at output
dbg_arlock_s0[0] is not registered at output
dbg_arcache_s0[3] is not registered at output
dbg_arcache_s0[2] is not registered at output
dbg_arcache_s0[1] is not registered at output
dbg_arcache_s0[0] is not registered at output
dbg_arprot_s0[2] is not registered at output
dbg_arprot_s0[1] is not registered at output
dbg_arprot_s0[0] is not registered at output
dbg_arvalid_s0 is not registered at output
dbg_arready_s0 is not registered at output
dbg_rid_s0[3] is not registered at output
dbg_rid_s0[2] is not registered at output
dbg_rid_s0[1] is not registered at output
dbg_rid_s0[0] is not registered at output
dbg_rdata_s0[127] is not registered at output
dbg_rdata_s0[126] is not registered at output
dbg_rdata_s0[125] is not registered at output
dbg_rdata_s0[124] is not registered at output
dbg_rdata_s0[123] is not registered at output
dbg_rdata_s0[122] is not registered at output
dbg_rdata_s0[121] is not registered at output
dbg_rdata_s0[120] is not registered at output
dbg_rdata_s0[119] is not registered at output
dbg_rdata_s0[118] is not registered at output
dbg_rdata_s0[117] is not registered at output
dbg_rdata_s0[116] is not registered at output
dbg_rdata_s0[115] is not registered at output
dbg_rdata_s0[114] is not registered at output
dbg_rdata_s0[113] is not registered at output
dbg_rdata_s0[112] is not registered at output
dbg_rdata_s0[111] is not registered at output
dbg_rdata_s0[110] is not registered at output
dbg_rdata_s0[109] is not registered at output
dbg_rdata_s0[108] is not registered at output
dbg_rdata_s0[107] is not registered at output
dbg_rdata_s0[106] is not registered at output
dbg_rdata_s0[105] is not registered at output
dbg_rdata_s0[104] is not registered at output
dbg_rdata_s0[103] is not registered at output
dbg_rdata_s0[102] is not registered at output
